
**** 04/22/23 10:35:47 ********* PSpice 9.2 (Mar 2000) ******** ID# 1 ********

 ** Profile: "SCHEMATIC1-Pulse-HW01"  [ d:\drive e\university\ta\pulse technique\dr ahmadifard\spring 01-02\hws\hw01\simulation\pulse


 ****     CIRCUIT DESCRIPTION


******************************************************************************




** Creating circuit file "pulse-hw01-schematic1-pulse-hw01.sim.cir" 
** WARNING: THIS AUTOMATICALLY GENERATED FILE MAY BE OVERWRITTEN BY SUBSEQUENT SIMULATIONS

*Libraries: 
* Local Libraries :
* From [PSPICE NETLIST] section of C:\Program Files\Orcad\PSpice\PSpice.ini file:
.lib "nom.lib" 

*Analysis directives: 
.TRAN  0 10us 0 
.PROBE V(*) I(*) W(*) D(*) NOISE(*) 
.INC ".\pulse-hw01-SCHEMATIC1.net" 



**** INCLUDING pulse-hw01-SCHEMATIC1.net ****
* source PULSE-HW01
C_C6         0 N01894  20P  
R_R5         N01878 N01894  9000k  
V_V2         N01878 0  
+PULSE -1 5 1n 1n 1n 1u 3u
R_R6         0 N01894  1000k  
C_C5         N01878 N01894  2.2P  

**** RESUMING pulse-hw01-schematic1-pulse-hw01.sim.cir ****
.END

**** 04/22/23 10:35:47 ********* PSpice 9.2 (Mar 2000) ******** ID# 1 ********

 ** Profile: "SCHEMATIC1-Pulse-HW01"  [ d:\drive e\university\ta\pulse technique\dr ahmadifard\spring 01-02\hws\hw01\simulation\pulse


 ****     INITIAL TRANSIENT SOLUTION       TEMPERATURE =   27.000 DEG C


******************************************************************************



 NODE   VOLTAGE     NODE   VOLTAGE     NODE   VOLTAGE     NODE   VOLTAGE


(N01878)   -1.0000 (N01894)    -.1000 




    VOLTAGE SOURCE CURRENTS
    NAME         CURRENT

    V_V2         1.000E-07

    TOTAL POWER DISSIPATION   1.00E-07  WATTS



          JOB CONCLUDED

          TOTAL JOB TIME             .05
