
**** 11/29/21 12:55:30 ********* PSpice 9.2 (Mar 2000) ******** ID# 1 ********

 ** Profile: "SCHEMATIC1-Elec1_Lab9"  [ E:\UNIVERSITY\ELECTERICAL\LABS\ELECTRONICS 1\REPORTS\LAB9\SIMULATION\elec1_lab9-SCHEMATIC1-El


 ****     CIRCUIT DESCRIPTION


******************************************************************************




** Creating circuit file "elec1_lab9-SCHEMATIC1-Elec1_Lab9.sim.cir" 
** WARNING: THIS AUTOMATICALLY GENERATED FILE MAY BE OVERWRITTEN BY SUBSEQUENT SIMULATIONS

*Libraries: 
* Local Libraries :
* From [PSPICE NETLIST] section of C:\Program Files\Orcad\PSpice\PSpice.ini file:
.lib "nom.lib" 

*Analysis directives: 
.AC DEC 1K 1 1000K
.PROBE V(*) I(*) W(*) D(*) NOISE(*) 
.INC ".\elec1_lab9-SCHEMATIC1.net" 



**** INCLUDING elec1_lab9-SCHEMATIC1.net ****
* source ELEC1_LAB9
Q_Q1         N00161 N00219 N00190 BC107A 
R_R1         N00161 N00279  5.6k  
R_R2         0 N00190  1k  
V_V8         N03769 0 DC 0Vdc AC 1Vac 
R_R3         N00219 N00279  100k  
V_V2         N00279 0 12Vdc
R_R4         0 N00219  18k  
C_C6         N03769 N00219  1u  
C_C1         0 N00190  1u  
C_C7         N00161 N04148  1u  
R_R8         0 N04148  10k  

**** RESUMING elec1_lab9-SCHEMATIC1-Elec1_Lab9.sim.cir ****
.END

**** 11/29/21 12:55:30 ********* PSpice 9.2 (Mar 2000) ******** ID# 1 ********

 ** Profile: "SCHEMATIC1-Elec1_Lab9"  [ E:\UNIVERSITY\ELECTERICAL\LABS\ELECTRONICS 1\REPORTS\LAB9\SIMULATION\elec1_lab9-SCHEMATIC1-El


 ****     BJT MODEL PARAMETERS


******************************************************************************




               BC107A          
               NPN             
          IS    7.049000E-15 
          BF  375.5          
          NF    1            
         VAF  116.3          
         IKF    4.589        
         ISE    7.049000E-15 
          NE    1.281        
          BR    2.611        
          NR    1            
         IKR    5.313        
         ISC  121.700000E-12 
          NC    1.865        
          RC    1.464        
         CJE   11.500000E-12 
         VJE     .5          
         MJE     .2717       
         CJC    5.380000E-12 
         VJC     .6218       
         MJC     .329        
          TF  451.000000E-12 
         XTF   17.43         
         VTF   10            
         ITF    6.194        
          TR   10.000000E-09 
         XTB    1.5          
          CN    2.42         
           D     .87         


**** 11/29/21 12:55:30 ********* PSpice 9.2 (Mar 2000) ******** ID# 1 ********

 ** Profile: "SCHEMATIC1-Elec1_Lab9"  [ E:\UNIVERSITY\ELECTERICAL\LABS\ELECTRONICS 1\REPORTS\LAB9\SIMULATION\elec1_lab9-SCHEMATIC1-El


 ****     SMALL SIGNAL BIAS SOLUTION       TEMPERATURE =   27.000 DEG C


******************************************************************************



 NODE   VOLTAGE     NODE   VOLTAGE     NODE   VOLTAGE     NODE   VOLTAGE


(N00161)    6.0521 (N00190)    1.0685 (N00219)    1.7333 (N00279)   12.0000     

(N03769)    0.0000 (N04148)    0.0000 




    VOLTAGE SOURCE CURRENTS
    NAME         CURRENT

    V_V8         0.000E+00
    V_V2        -1.165E-03

    TOTAL POWER DISSIPATION   1.40E-02  WATTS



          JOB CONCLUDED

          TOTAL JOB TIME             .17
