
**** 01/04/21 02:53:12 ********* PSpice 9.2 (Mar 2000) ******** ID# 1 ********

 ** Profile: "SCHEMATIC1-E1-Project-Simulation"  [ e:\university\electerical\elec 1\dr ashraf\el1_9901\e1\project\simulation\pspise\c


 ****     CIRCUIT DESCRIPTION


******************************************************************************




** Creating circuit file "ec1-project-simulation-schematic1-e1-project-simulation.sim.cir" 
** WARNING: THIS AUTOMATICALLY GENERATED FILE MAY BE OVERWRITTEN BY SUBSEQUENT SIMULATIONS

*Libraries: 
* Local Libraries :
.LIB ".\ec1-project-simulation.lib" 
* From [PSPICE NETLIST] section of C:\Program Files\Orcad\PSpice\PSpice.ini file:
.lib "nom.lib" 

*Analysis directives: 
.TRAN  0 500u 0 
.PROBE V(*) I(*) W(*) D(*) NOISE(*) 
.INC ".\ec1-project-simulation-SCHEMATIC1.net" 



**** INCLUDING ec1-project-simulation-SCHEMATIC1.net ****
* source EC1-PROJECT-SIMULATION
C_C3         N00447 VIN  100u  
Q_Q1         VOUT N00257 N00447 BC107A 
V_VCC         N00153 0 5Vdc
C_C4         0 N00257  100u  
R_RC         VOUT N00153  6.8k  
V_V1         VIN 0  
+SIN 1 100m 10k 0 0 0
R_R_B2         N00257 N00153  3.3k  
R_R_B1         0 N00257  1k  
R_RE         0 N00447  1k  

**** RESUMING ec1-project-simulation-schematic1-e1-project-simulation.sim.cir ****
.END

**** 01/04/21 02:53:12 ********* PSpice 9.2 (Mar 2000) ******** ID# 1 ********

 ** Profile: "SCHEMATIC1-E1-Project-Simulation"  [ e:\university\electerical\elec 1\dr ashraf\el1_9901\e1\project\simulation\pspise\c


 ****     BJT MODEL PARAMETERS


******************************************************************************




               BC107A          
               NPN             
          IS    7.049000E-15 
          BF  100            
          NF    1            
         VAF  100            
         IKF    4.589        
         ISE    7.049000E-15 
          NE    1.281        
          BR    2.611        
          NR    1            
         IKR    5.313        
         ISC  121.700000E-12 
          NC    1.865        
          RC    1.464        
         CJE   11.500000E-12 
         VJE     .5          
         MJE     .2717       
         CJC    5.380000E-12 
         VJC     .6218       
         MJC     .329        
          TF  451.000000E-12 
         XTF   17.43         
         VTF   10            
         ITF    6.194        
          TR   10.000000E-09 
         XTB    1.5          
          CN    2.42         
           D     .87         


**** 01/04/21 02:53:12 ********* PSpice 9.2 (Mar 2000) ******** ID# 1 ********

 ** Profile: "SCHEMATIC1-E1-Project-Simulation"  [ e:\university\electerical\elec 1\dr ashraf\el1_9901\e1\project\simulation\pspise\c


 ****     INITIAL TRANSIENT SOLUTION       TEMPERATURE =   27.000 DEG C


******************************************************************************



 NODE   VOLTAGE     NODE   VOLTAGE     NODE   VOLTAGE     NODE   VOLTAGE


(  VIN)    1.0000  ( VOUT)    1.5734  (N00153)    5.0000 (N00257)    1.1573     

(N00447)     .5110 




    VOLTAGE SOURCE CURRENTS
    NAME         CURRENT

    V_VCC       -1.668E-03
    V_V1         0.000E+00

    TOTAL POWER DISSIPATION   8.34E-03  WATTS



          JOB CONCLUDED

          TOTAL JOB TIME            0.00
