
**** 03/01/22 17:24:11 ********* PSpice 9.2 (Mar 2000) ******** ID# 1 ********

 ** Profile: "SCHEMATIC1-Pulse_HW02"  [ E:\UNIVERSITY\ELECTERICAL\PULSE TECHNIQUE\DR AHMADIFARD\HW\HW02\Simulation\pulse_hw02-SCHEMAT


 ****     CIRCUIT DESCRIPTION


******************************************************************************




** Creating circuit file "pulse_hw02-SCHEMATIC1-Pulse_HW02.sim.cir" 
** WARNING: THIS AUTOMATICALLY GENERATED FILE MAY BE OVERWRITTEN BY SUBSEQUENT SIMULATIONS

*Libraries: 
* Local Libraries :
* From [PSPICE NETLIST] section of C:\Program Files\Orcad\PSpice\PSpice.ini file:
.lib "nom.lib" 

*Analysis directives: 
.TRAN  0 20us 0 
.PROBE V(*) I(*) W(*) D(*) NOISE(*) 
.INC ".\pulse_hw02-SCHEMATIC1.net" 



**** INCLUDING pulse_hw02-SCHEMATIC1.net ****
* source PULSE_HW02
Q_Q1         N00552 N00490 0 BC107A 
R_R1         N00552 N00739  1k  
R_R2         0 N00490  10k  
R_R3         N00409 N00463  1k  
C_C2         N00463 N00490  5n  
V_V1         N00409 0  
+PULSE 0 5 0 1n 1n 10us 0
V_V2         N00739 0 10Vdc

**** RESUMING pulse_hw02-SCHEMATIC1-Pulse_HW02.sim.cir ****
.END

**** 03/01/22 17:24:11 ********* PSpice 9.2 (Mar 2000) ******** ID# 1 ********

 ** Profile: "SCHEMATIC1-Pulse_HW02"  [ E:\UNIVERSITY\ELECTERICAL\PULSE TECHNIQUE\DR AHMADIFARD\HW\HW02\Simulation\pulse_hw02-SCHEMAT


 ****     BJT MODEL PARAMETERS


******************************************************************************




               BC107A          
               NPN             
          IS    7.049000E-15 
          BF  375.5          
          NF    1            
         VAF  116.3          
         IKF    4.589        
         ISE    7.049000E-15 
          NE    1.281        
          BR    2.611        
          NR    1            
         IKR    5.313        
         ISC  121.700000E-12 
          NC    1.865        
          RC    1.464        
         CJE   11.500000E-12 
         VJE     .5          
         MJE     .2717       
         CJC    5.380000E-12 
         VJC     .6218       
         MJC     .329        
          TF  451.000000E-12 
         XTF   17.43         
         VTF   10            
         ITF    6.194        
          TR   10.000000E-09 
         XTB    1.5          
          CN    2.42         
           D     .87         


**** 03/01/22 17:24:11 ********* PSpice 9.2 (Mar 2000) ******** ID# 1 ********

 ** Profile: "SCHEMATIC1-Pulse_HW02"  [ E:\UNIVERSITY\ELECTERICAL\PULSE TECHNIQUE\DR AHMADIFARD\HW\HW02\Simulation\pulse_hw02-SCHEMAT


 ****     INITIAL TRANSIENT SOLUTION       TEMPERATURE =   27.000 DEG C


******************************************************************************



 NODE   VOLTAGE     NODE   VOLTAGE     NODE   VOLTAGE     NODE   VOLTAGE


(N00409)    0.0000 (N00463)    0.0000 (N00490) 1.255E-06 (N00552)   10.0000     

(N00739)   10.0000 




    VOLTAGE SOURCE CURRENTS
    NAME         CURRENT

    V_V1         0.000E+00
    V_V2        -1.364E-10

    TOTAL POWER DISSIPATION   1.36E-09  WATTS



          JOB CONCLUDED

          TOTAL JOB TIME             .03
