
**** 06/17/20 21:35:21 ********* PSpice 9.2 (Mar 2000) ******** ID# 0 ********

 ** Profile: "SCHEMATIC1-jhgkl;"  [ e:\university\electronics 3\lab\8th\sim\jryk-schematic1-jhgkl;.sim ] 


 ****     CIRCUIT DESCRIPTION


******************************************************************************




** Creating circuit file "jryk-schematic1-jhgkl;.sim.cir" 
** WARNING: THIS AUTOMATICALLY GENERATED FILE MAY BE OVERWRITTEN BY SUBSEQUENT SIMULATIONS

*Libraries: 
* Local Libraries :
* From [PSPICE NETLIST] section of h:\softwares\orcad\new\PSpice\PSpice.ini file:
.lib "nom.lib" 

*Analysis directives: 
.TRAN  0 20s 0 
.PROBE V(*) I(*) W(*) D(*) NOISE(*) 
.INC ".\jryk-SCHEMATIC1.net" 



**** INCLUDING jryk-SCHEMATIC1.net ****
* source JRYK
R_R1         N00234 N01081  7.5k  
C_C4         0 N00305  470u  
R_R2         0 N00234  400  
R_R3         0 N00305  100  
L_L1         N01081 VOUT  22m  
V_V1         N01081 0 9
L_L2         VOUT N00659  4.7u  
C_C1         0 VOUT  1n  
C_C2         N00659 0  10n  
C_C3         N00234 N00659  10u  
Q_Q1         VOUT N00234 N00305 Q2N2222

**** RESUMING jryk-schematic1-jhgkl;.sim.cir ****
.END

**** 06/17/20 21:35:21 ********* PSpice 9.2 (Mar 2000) ******** ID# 0 ********

 ** Profile: "SCHEMATIC1-jhgkl;"  [ e:\university\electronics 3\lab\8th\sim\jryk-schematic1-jhgkl;.sim ] 


 ****     BJT MODEL PARAMETERS


******************************************************************************




               Q2N2222         
               NPN             
          IS   14.340000E-15 
          BF  255.9          
          NF    1            
         VAF   74.03         
         IKF     .2847       
         ISE   14.340000E-15 
          NE    1.307        
          BR    6.092        
          NR    1            
          RB   10            
          RC    1            
         CJE   22.010000E-12 
         MJE     .377        
         CJC    7.306000E-12 
         MJC     .3416       
          TF  411.100000E-12 
         XTF    3            
         VTF    1.7          
         ITF     .6          
          TR   46.910000E-09 
         XTB    1.5          
          CN    2.42         
           D     .87         


**** 06/17/20 21:35:21 ********* PSpice 9.2 (Mar 2000) ******** ID# 0 ********

 ** Profile: "SCHEMATIC1-jhgkl;"  [ e:\university\electronics 3\lab\8th\sim\jryk-schematic1-jhgkl;.sim ] 


 ****     INITIAL TRANSIENT SOLUTION       TEMPERATURE =   27.000 DEG C


******************************************************************************



 NODE   VOLTAGE     NODE   VOLTAGE     NODE   VOLTAGE     NODE   VOLTAGE


( VOUT)    9.0000  (N00234)     .4557 (N00305) 72.80E-06 (N00659)    9.0000     

(N01081)    9.0000 




    VOLTAGE SOURCE CURRENTS
    NAME         CURRENT

    V_V1        -1.140E-03

    TOTAL POWER DISSIPATION   1.03E-02  WATTS



          JOB CONCLUDED

          TOTAL JOB TIME             .02
