
**** 05/11/20 00:05:41 ********* PSpice 9.2 (Mar 2000) ******** ID# 0 ********

 ** Profile: "SCHEMATIC1-egrg"  [ E:\UNIVERSITY\Electronics 2\LAB\6th\Sim\gui-SCHEMATIC1-egrg.sim ] 


 ****     CIRCUIT DESCRIPTION


******************************************************************************




** Creating circuit file "gui-SCHEMATIC1-egrg.sim.cir" 
** WARNING: THIS AUTOMATICALLY GENERATED FILE MAY BE OVERWRITTEN BY SUBSEQUENT SIMULATIONS

*Libraries: 
* Local Libraries :
* From [PSPICE NETLIST] section of h:\softwares\orcad\new\PSpice\PSpice.ini file:
.lib "nom.lib" 

*Analysis directives: 
.AC DEC 10 1 100gig
.PROBE V(*) I(*) W(*) D(*) NOISE(*) 
.INC ".\gui-SCHEMATIC1.net" 



**** INCLUDING gui-SCHEMATIC1.net ****
* source GUI
Q_Q1         N00314 N00404 N00718 BC107A 
R_R1         N00314 N01095  2.2k  
R_R2         N00314 N00377  100k  
V_V1         N01095 0 9
V_V5         VOUT 0 DC 0Vdc AC 1Vac 
R_R3         N00404 N00377  100k  
R_R5         0 N00718  470  
C_C1         N00314 VOUT  22u  
C_C4         0 N00718  100u  
C_C3         N02699 N00404  22u  
R_R8         0 N02699  12k  

**** RESUMING gui-SCHEMATIC1-egrg.sim.cir ****
.END

**** 05/11/20 00:05:41 ********* PSpice 9.2 (Mar 2000) ******** ID# 0 ********

 ** Profile: "SCHEMATIC1-egrg"  [ E:\UNIVERSITY\Electronics 2\LAB\6th\Sim\gui-SCHEMATIC1-egrg.sim ] 


 ****     BJT MODEL PARAMETERS


******************************************************************************




               BC107A          
               NPN             
          IS    7.049000E-15 
          BF  375.5          
          NF    1            
         VAF  116.3          
         IKF    4.589        
         ISE    7.049000E-15 
          NE    1.281        
          BR    2.611        
          NR    1            
         IKR    5.313        
         ISC  121.700000E-12 
          NC    1.865        
          RC    1.464        
         CJE   11.500000E-12 
         VJE     .5          
         MJE     .2717       
         CJC    5.380000E-12 
         VJC     .6218       
         MJC     .329        
          TF  451.000000E-12 
         XTF   17.43         
         VTF   10            
         ITF    6.194        
          TR   10.000000E-09 
         XTB    1.5          
          CN    2.42         
           D     .87         


**** 05/11/20 00:05:41 ********* PSpice 9.2 (Mar 2000) ******** ID# 0 ********

 ** Profile: "SCHEMATIC1-egrg"  [ E:\UNIVERSITY\Electronics 2\LAB\6th\Sim\gui-SCHEMATIC1-egrg.sim ] 


 ****     SMALL SIGNAL BIAS SOLUTION       TEMPERATURE =   27.000 DEG C


******************************************************************************



 NODE   VOLTAGE     NODE   VOLTAGE     NODE   VOLTAGE     NODE   VOLTAGE


( VOUT)    0.0000  (N00314)    4.1587 (N00377)    2.9384 (N00404)    1.7182     

(N00718)    1.0343 (N01095)    9.0000 (N02699)    0.0000 




    VOLTAGE SOURCE CURRENTS
    NAME         CURRENT

    V_V1        -2.201E-03
    V_V5         0.000E+00

    TOTAL POWER DISSIPATION   1.98E-02  WATTS



          JOB CONCLUDED

          TOTAL JOB TIME             .02
