
**** 02/07/20 19:33:26 ********* PSpice 9.2 (Mar 2000) ******** ID# 0 ********

 ** Profile: "SCHEMATIC1-jhu"  [ E:\UNIVERSITY\ELECTRONICS 2\LAB\2ND\SIM\cascodeamp-SCHEMATIC1-jhu.sim ] 


 ****     CIRCUIT DESCRIPTION


******************************************************************************




** Creating circuit file "cascodeamp-SCHEMATIC1-jhu.sim.cir" 
** WARNING: THIS AUTOMATICALLY GENERATED FILE MAY BE OVERWRITTEN BY SUBSEQUENT SIMULATIONS

*Libraries: 
* Local Libraries :
* From [PSPICE NETLIST] section of h:\softwares\orcad\new\PSpice\PSpice.ini file:
.lib "nom.lib" 

*Analysis directives: 
.TRAN  0 0.4ms 0 
.PROBE V(*) I(*) W(*) D(*) NOISE(*) 
.INC ".\cascodeamp-SCHEMATIC1.net" 



**** INCLUDING cascodeamp-SCHEMATIC1.net ****
* source CASCODEAMP
R_R1         N00463 N00436  10k  
R_R2         N00726 N00463  5.6k  
C_C3         VIN N00726  10u  
R_R3         0 N00726  4.7k  
C_C4         0 N01203  10u  
V_V4         VIN 0  
+SIN 0 25m 5k 0 0 0
R_R4         VOUT N00436  1.8k  
R_R5         0 N01203  1k  
V_V1         N00436 0 15
Q_Q1         VOUT N00463 N001712 BC107A 
Q_Q2         N001712 N00726 N01203 BC107A 
C_C1         0 N00463  10u  

**** RESUMING cascodeamp-SCHEMATIC1-jhu.sim.cir ****
.END

**** 02/07/20 19:33:26 ********* PSpice 9.2 (Mar 2000) ******** ID# 0 ********

 ** Profile: "SCHEMATIC1-jhu"  [ E:\UNIVERSITY\ELECTRONICS 2\LAB\2ND\SIM\cascodeamp-SCHEMATIC1-jhu.sim ] 


 ****     BJT MODEL PARAMETERS


******************************************************************************




               BC107A          
               NPN             
          IS    7.049000E-15 
          BF  375.5          
          NF    1            
         VAF  116.3          
         IKF    4.589        
         ISE    7.049000E-15 
          NE    1.281        
          BR    2.611        
          NR    1            
         IKR    5.313        
         ISC  121.700000E-12 
          NC    1.865        
          RC    1.464        
         CJE   11.500000E-12 
         VJE     .5          
         MJE     .2717       
         CJC    5.380000E-12 
         VJC     .6218       
         MJC     .329        
          TF  451.000000E-12 
         XTF   17.43         
         VTF   10            
         ITF    6.194        
          TR   10.000000E-09 
         XTB    1.5          
          CN    2.42         
           D     .87         


**** 02/07/20 19:33:26 ********* PSpice 9.2 (Mar 2000) ******** ID# 0 ********

 ** Profile: "SCHEMATIC1-jhu"  [ E:\UNIVERSITY\ELECTRONICS 2\LAB\2ND\SIM\cascodeamp-SCHEMATIC1-jhu.sim ] 


 ****     INITIAL TRANSIENT SOLUTION       TEMPERATURE =   27.000 DEG C


******************************************************************************



 NODE   VOLTAGE     NODE   VOLTAGE     NODE   VOLTAGE     NODE   VOLTAGE


(  VIN)    0.0000  ( VOUT)   10.1960  (N00436)   15.0000 (N00463)    7.5036     

(N00726)    3.3869 (N01203)    2.6979 (N001712)    6.8146                   




    VOLTAGE SOURCE CURRENTS
    NAME         CURRENT

    V_V4         0.000E+00
    V_V1        -3.419E-03

    TOTAL POWER DISSIPATION   5.13E-02  WATTS



          JOB CONCLUDED

          TOTAL JOB TIME             .03
