
**** 05/07/20 07:22:30 ********* PSpice 9.2 (Mar 2000) ******** ID# 0 ********

 ** Profile: "SCHEMATIC1-hj"  [ E:\UNIVERSITY\Electronics 2\LAB\4th\Sim\xff-SCHEMATIC1-hj.sim ] 


 ****     CIRCUIT DESCRIPTION


******************************************************************************




** Creating circuit file "xff-SCHEMATIC1-hj.sim.cir" 
** WARNING: THIS AUTOMATICALLY GENERATED FILE MAY BE OVERWRITTEN BY SUBSEQUENT SIMULATIONS

*Libraries: 
* Local Libraries :
* From [PSPICE NETLIST] section of h:\softwares\orcad\new\PSpice\PSpice.ini file:
.lib "nom.lib" 

*Analysis directives: 
.AC DEC 10 1 100gig
.PROBE V(*) I(*) W(*) D(*) NOISE(*) 
.INC ".\xff-SCHEMATIC1.net" 



**** INCLUDING xff-SCHEMATIC1.net ****
* source XFF
R_R1         VOUT1 N00776  6.8k  
V_V2         0 N000471 10
V_V1         N00776 0 10
R_R2         VOUT2 N00776  6.8k  
R_R3         N000471 N00346  4.7k  
R_R4         0 N00287  3.3k  
R_R5         0 N00572  3.3k  
C_C1         VIN1 N00287  10u  
C_C2         N00572 VIN2  10u  
Q_Q1         VOUT1 N00287 N00346 Q2N2222
Q_Q2         VOUT2 N00572 N00346 Q2N2222
V_V4         VIN1 0 DC 0Vdc AC 1Vac 
V_V6         VIN2 0 DC 0Vdc AC 1Vac 

**** RESUMING xff-SCHEMATIC1-hj.sim.cir ****
.END

**** 05/07/20 07:22:30 ********* PSpice 9.2 (Mar 2000) ******** ID# 0 ********

 ** Profile: "SCHEMATIC1-hj"  [ E:\UNIVERSITY\Electronics 2\LAB\4th\Sim\xff-SCHEMATIC1-hj.sim ] 


 ****     BJT MODEL PARAMETERS


******************************************************************************




               Q2N2222         
               NPN             
          IS   14.340000E-15 
          BF  255.9          
          NF    1            
         VAF   74.03         
         IKF     .2847       
         ISE   14.340000E-15 
          NE    1.307        
          BR    6.092        
          NR    1            
          RB   10            
          RC    1            
         CJE   22.010000E-12 
         MJE     .377        
         CJC    7.306000E-12 
         MJC     .3416       
          TF  411.100000E-12 
         XTF    3            
         VTF    1.7          
         ITF     .6          
          TR   46.910000E-09 
         XTB    1.5          
          CN    2.42         
           D     .87         


**** 05/07/20 07:22:30 ********* PSpice 9.2 (Mar 2000) ******** ID# 0 ********

 ** Profile: "SCHEMATIC1-hj"  [ E:\UNIVERSITY\Electronics 2\LAB\4th\Sim\xff-SCHEMATIC1-hj.sim ] 


 ****     SMALL SIGNAL BIAS SOLUTION       TEMPERATURE =   27.000 DEG C


******************************************************************************



 NODE   VOLTAGE     NODE   VOLTAGE     NODE   VOLTAGE     NODE   VOLTAGE


( VIN1)    0.0000  ( VIN2)    0.0000  (VOUT1)    3.2912  (VOUT2)    3.2912      

(N00287)    -.0212 (N00346)    -.6657 (N00572)    -.0212 (N00776)   10.0000     

(N000471)  -10.0000                   




    VOLTAGE SOURCE CURRENTS
    NAME         CURRENT

    V_V2        -1.986E-03
    V_V1        -1.973E-03
    V_V4         0.000E+00
    V_V6         0.000E+00

    TOTAL POWER DISSIPATION   3.96E-02  WATTS



          JOB CONCLUDED

          TOTAL JOB TIME             .02
