
**** 02/08/20 23:24:50 ********* PSpice 9.2 (Mar 2000) ******** ID# 0 ********

 ** Profile: "SCHEMATIC1-ih"  [ e:\university\electronics 3\lab\1st\sim\commonbaseandemitter-schematic1-ih.sim ] 


 ****     CIRCUIT DESCRIPTION


******************************************************************************




** Creating circuit file "commonbaseandemitter-schematic1-ih.sim.cir" 
** WARNING: THIS AUTOMATICALLY GENERATED FILE MAY BE OVERWRITTEN BY SUBSEQUENT SIMULATIONS

*Libraries: 
* Local Libraries :
* From [PSPICE NETLIST] section of h:\softwares\orcad\new\PSpice\PSpice.ini file:
.lib "nom.lib" 

*Analysis directives: 
.AC DEC 10 10 100meg
.PROBE V(*) I(*) W(*) D(*) NOISE(*) 
.INC ".\commonbaseandemitter-SCHEMATIC1.net" 



**** INCLUDING commonbaseandemitter-SCHEMATIC1.net ****
* source COMMONBASEANDEMITTER
V_V2         VIN 0 DC 0Vdc AC 1Vac 
Q_Q1         VOUT N00103 N00367 Q2N2222A/ZTX 
R_R1         VOUT N00265  5.6k  
R_R2         0 N00367  330  
R_R7         N02594 N007210  100  
C_C2         N00367 0  48u  
C_C3         N02594 N00103  3.3u  
R_R3         N00103 N00265  4.7k  
V_V1         N00265 0 12
R_R4         0 N00103  390  
R_R6         VIN N007210  50  

**** RESUMING commonbaseandemitter-schematic1-ih.sim.cir ****
.END

**** 02/08/20 23:24:50 ********* PSpice 9.2 (Mar 2000) ******** ID# 0 ********

 ** Profile: "SCHEMATIC1-ih"  [ e:\university\electronics 3\lab\1st\sim\commonbaseandemitter-schematic1-ih.sim ] 


 ****     BJT MODEL PARAMETERS


******************************************************************************




               Q2N2222A/ZTX    
               NPN             
          IS   30.611000E-15 
          BF  220            
          NF    1.00124      
         VAF  104            
         IKF     .52         
         ISE    7.500000E-15 
          NE    1.41         
          BR    4            
          NR    1.005        
         VAR   28            
         IKR     .24         
         ISC   10.652500E-12 
          NC    1.3728       
          RB     .13         
          RE     .22         
          RC     .12         
         CJE   27.010000E-12 
         CJC    9.120000E-12 
         VJC     .4089       
         MJC     .3508       
          TF  325.000000E-12 
          TR  100.000000E-09 
          CN    2.42         
           D     .87         


**** 02/08/20 23:24:50 ********* PSpice 9.2 (Mar 2000) ******** ID# 0 ********

 ** Profile: "SCHEMATIC1-ih"  [ e:\university\electronics 3\lab\1st\sim\commonbaseandemitter-schematic1-ih.sim ] 


 ****     SMALL SIGNAL BIAS SOLUTION       TEMPERATURE =   27.000 DEG C


******************************************************************************



 NODE   VOLTAGE     NODE   VOLTAGE     NODE   VOLTAGE     NODE   VOLTAGE


(  VIN)    0.0000  ( VOUT)    7.0209  (N00103)     .9180 (N00265)   12.0000     

(N00367)     .2948 (N02594)    0.0000 (N007210)    0.0000                   




    VOLTAGE SOURCE CURRENTS
    NAME         CURRENT

    V_V2         0.000E+00
    V_V1        -3.247E-03

    TOTAL POWER DISSIPATION   3.90E-02  WATTS



          JOB CONCLUDED

          TOTAL JOB TIME             .08
