
**** 11/08/20 20:42:48 ********* PSpice 9.2 (Mar 2000) ******** ID# 0 ********

 ** Profile: "SCHEMATIC1-hg"  [ E:\University\Communication Circuits\LAB\5\az5-SCHEMATIC1-hg.sim ] 


 ****     CIRCUIT DESCRIPTION


******************************************************************************




** Creating circuit file "az5-SCHEMATIC1-hg.sim.cir" 
** WARNING: THIS AUTOMATICALLY GENERATED FILE MAY BE OVERWRITTEN BY SUBSEQUENT SIMULATIONS

*Libraries: 
* Local Libraries :
* From [PSPICE NETLIST] section of h:\softwares\orcad\new\PSpice\PSpice.ini file:
.lib "nom.lib" 

*Analysis directives: 
.PROBE V(*) I(*) W(*) D(*) NOISE(*) 
.INC ".\az5-SCHEMATIC1.net" 



**** INCLUDING az5-SCHEMATIC1.net ****
* source AZ5
C_C4         0 N00643  100n  
Q_Q1         N00397 N00528 N00643 Q2N2222
L_L1         N00397 N00335  82u  
Q_Q2         N00643 N00783 N00768 Q2N2222
V_V2         0 N00815 10
R_R1         N00528 N00335  1k  
R_R2         N00397 N00335  10k  
R_R3         0 N00783  2.7k  
R_R4         N00815 N00783  1k  
R_R5         N00815 N00768  15k  
V_V1         N00335 0 10
C_C3         N00397 N00335  1.5n  

**** RESUMING az5-SCHEMATIC1-hg.sim.cir ****
.END

**** 11/08/20 20:42:48 ********* PSpice 9.2 (Mar 2000) ******** ID# 0 ********

 ** Profile: "SCHEMATIC1-hg"  [ E:\University\Communication Circuits\LAB\5\az5-SCHEMATIC1-hg.sim ] 


 ****     BJT MODEL PARAMETERS


******************************************************************************




               Q2N2222         
               NPN             
          IS   14.340000E-15 
          BF  255.9          
          NF    1            
         VAF   74.03         
         IKF     .2847       
         ISE   14.340000E-15 
          NE    1.307        
          BR    6.092        
          NR    1            
          RB   10            
          RC    1            
         CJE   22.010000E-12 
         MJE     .377        
         CJC    7.306000E-12 
         MJC     .3416       
          TF  411.100000E-12 
         XTF    3            
         VTF    1.7          
         ITF     .6          
          TR   46.910000E-09 
         XTB    1.5          
          CN    2.42         
           D     .87         


**** 11/08/20 20:42:48 ********* PSpice 9.2 (Mar 2000) ******** ID# 0 ********

 ** Profile: "SCHEMATIC1-hg"  [ E:\University\Communication Circuits\LAB\5\az5-SCHEMATIC1-hg.sim ] 


 ****     SMALL SIGNAL BIAS SOLUTION       TEMPERATURE =   27.000 DEG C


******************************************************************************



 NODE   VOLTAGE     NODE   VOLTAGE     NODE   VOLTAGE     NODE   VOLTAGE


(N00335)   10.0000 (N00397)   10.0000 (N00528)    9.9988 (N00643)    9.4041     

(N00768)   -7.8877 (N00783)   -7.2980 (N00815)  -10.0000 




    VOLTAGE SOURCE CURRENTS
    NAME         CURRENT

    V_V2        -2.843E-03
    V_V1        -1.398E-04

    TOTAL POWER DISSIPATION   2.98E-02  WATTS



          JOB CONCLUDED

          TOTAL JOB TIME             .02
