 ****** HSPICE -- D-2010.03-SP1 32-BIT (May 26 2010) winnt ******               
  Copyright (C) 2010 Synopsys, Inc. All Rights Reserved.                        
  Unpublished-rights reserved under US copyright laws.
  This program is protected by law and is subject to the 
  terms and conditions of the license agreement from Synopsys.
  Use of this program is your acceptance to be bound by the 
  license agreement. HSPICE is the trademark of Synopsys, Inc.
  Input File: e:\university\electerical\electronic 3\dr marvi\hw\hw04\simulation
  lic:  
  lic: FLEXlm: v8.5b 
  lic: USER:   r3z4                 HOSTNAME: DESKTOP-L98U3RU 
  lic: HOSTID: "04d4c4e5f7d6 00ffbd48a6cb 7cb27d07c1f5 7cb27d07c1f6 7eb27d07c1f5
 "
  lic: Using FLEXlm license file: 
  lic: 27000@elena 
  lic: Checkout 1 hspice 
  lic: License/Maintenance for hspice will expire on 31-dec-2020/2007.9 
  lic: NODE LOCKED license on hostid "04d4c4e5f7d6 00ffbd48a6cb 7cb27d07c1f5 7cb
 2
  lic:   
 Init: read install configuration file: C:\synopsys\Hspice_D-2010.03-SP1\meta.cfg
  **info** (e:\university\electerical\electronic 3\dr marvi\hw\hw04\simulation\q2\diffrential pair\hw04_rezaadinepour.sp:13) DC voltage reset to initial transient source value              in source        0:vin                 new dc=  0.0000D+00
 

 **warning** the following singular supplies were terminated to 1 meg resistor 
   supply       node1            node2
  eout                    0:12               defined in subckt 0                     0:0                defined in subckt 0               
      
 *****************************************************************
 ******  option summary
 ******
 runlvl  = 3         bypass  = 2         
1****** HSPICE -- D-2010.03-SP1 32-BIT (May 26 2010) winnt ******               
 ******  
 reza adinepour - 9814303 - elec3-hw04-q1

  ******  operating point information tnom=  25.000 temp=  25.000 *****
 ***** operating point status is all       simulation time is     0.     
    node    =voltage      node    =voltage      node    =voltage

 +0:1       =   0.      0:2       =   0.      0:3       =-580.2901m
 +0:4       =   0.      0:5       =   0.      0:6       = 644.4864m
 +0:7       = 644.4864m 0:11      =   0.      0:12      =   0.     
 +0:100     =   5.0000 


 ****  voltage sources

 subckt                        
 element  0:vdd      0:vin     
  volts      5.0000     0.     
  current -871.1027u    0.     
  power      4.3555m    0.     

     total voltage source power dissipation=    4.3555m       watts



 ***** current sources

 subckt             
 element  0:iss     
  volts   -580.2901m
  current    1.0000m
  power    580.2901u


     total current source power dissipation= 580.2901u       watts

 **** resistors

 subckt                                              
 element  0:rd1      0:rd2      0:rsp      0:rsn     
  r value   10.0000k   10.0000k    1.0000k    1.0000k
  v drop     4.3555     4.3555     0.         0.     
  current  435.5514u  435.5514u    0.         0.     
  power      1.8970m    1.8970m    0.         0.     


 **** voltage-controlled voltage sources


 subckt                                   
 element  0:eip      0:ein      0:eout    
  volts      0.         0.         0.     
  current    0.         0.         0.     





 **** mosfets


 subckt                        
 element  0:m1       0:m2      
 model    0:ynmos    0:ynmos   
 region     Saturati   Saturati
  id       435.5515u  435.5515u
  ibs       64.4486u   64.4486u
  ibd       -6.4449f   -6.4449f
  vgs      580.2901m  580.2901m
  vds        1.2248     1.2248 
  vbs      580.2901m  580.2901m
  vth      562.3721m  562.3721m
  vdsat     17.9180m   17.9180m
  vod       17.9180m   17.9180m
  beta       2.7133     2.7133 
  gam eff  450.0000m  450.0000m
  gm        48.6161m   48.6161m
  gds       38.8027u   38.8027u
  gmb       17.0160m   17.0160m
  cdtot    144.0451f  144.0451f
  cgtot    276.9993f  276.9993f
  cstot    128.9175f  128.9175f
  cbtot      4.0367f    4.0367f
  cgs      128.9175f  128.9175f
  cgd      144.0451f  144.0451f



 ***************************************************
   ******   pole/zero analysis  
 
 
    input =  0:vin          output = v(12)
 
       poles (rad/sec)                 poles ( hertz)
 real            imag            real            imag            
 -19.3183x       0.              -3.07460x       0.              
 -241.213x       0.              -38.3902x       0.              
 -359.409g       0.              -57.2017g       0.              
 -375.170g       0.              -59.7102g       0.              
 
       zeros (rad/sec)                 zeros ( hertz)
 real            imag            real            imag            
 -257.845x       -186.280k       -41.0374x       -29.6474k       
 337.506g        0.              53.7157g        0.              
 -359.393g       473.750k        -57.1991g       75.3997k        
 
  ***** constant factor = -38.5675x
 ******  
 reza adinepour - 9814303 - elec3-hw04-q1

  ******  ac analysis tnom=  25.000 temp=  25.000 *****
x

        freq       gain    
                           
    1.00000     350.2532   
    1.04713     350.2532   
    1.09648     350.2532   
    1.14815     350.2532   
    1.20226     350.2532   
    1.25893     350.2532   
    1.31826     350.2532   
    1.38038     350.2532   
    1.44544     350.2532   
    1.51356     350.2532   
    1.58489     350.2532   
    1.65959     350.2532   
    1.73780     350.2532   
    1.81970     350.2532   
    1.90546     350.2532   
    1.99526     350.2532   
    2.08930     350.2532   
    2.18776     350.2532   
    2.29087     350.2532   
    2.39883     350.2532   
    2.51189     350.2532   
    2.63027     350.2532   
    2.75423     350.2532   
    2.88403     350.2532   
    3.01995     350.2532   
    3.16228     350.2532   
    3.31131     350.2532   
    3.46737     350.2532   
    3.63078     350.2532   
    3.80189     350.2532   
    3.98107     350.2532   
    4.16869     350.2532   
    4.36516     350.2532   
    4.57088     350.2532   
    4.78630     350.2532   
    5.01187     350.2532   
    5.24807     350.2532   
    5.49541     350.2532   
    5.75440     350.2532   
    6.02560     350.2532   
    6.30957     350.2532   
    6.60693     350.2532   
    6.91831     350.2532   
    7.24436     350.2532   
    7.58578     350.2532   
    7.94328     350.2532   
    8.31764     350.2532   
    8.70964     350.2532   
    9.12011     350.2532   
    9.54993     350.2532   
   10.00000     350.2532   
   10.47129     350.2532   
   10.96478     350.2532   
   11.48154     350.2532   
   12.02264     350.2532   
   12.58925     350.2532   
   13.18257     350.2532   
   13.80384     350.2532   
   14.45440     350.2532   
   15.13561     350.2532   
   15.84893     350.2532   
   16.59587     350.2532   
   17.37801     350.2532   
   18.19701     350.2532   
   19.05461     350.2532   
   19.95262     350.2532   
   20.89296     350.2532   
   21.87762     350.2532   
   22.90868     350.2532   
   23.98833     350.2532   
   25.11886     350.2532   
   26.30268     350.2532   
   27.54229     350.2532   
   28.84032     350.2532   
   30.19952     350.2532   
   31.62278     350.2532   
   33.11311     350.2532   
   34.67369     350.2532   
   36.30781     350.2532   
   38.01894     350.2532   
   39.81072     350.2532   
   41.68694     350.2532   
   43.65158     350.2532   
   45.70882     350.2532   
   47.86301     350.2532   
   50.11872     350.2532   
   52.48075     350.2532   
   54.95409     350.2532   
   57.54399     350.2532   
   60.25596     350.2532   
   63.09573     350.2532   
   66.06934     350.2532   
   69.18310     350.2532   
   72.44360     350.2532   
   75.85776     350.2532   
   79.43282     350.2532   
   83.17638     350.2532   
   87.09636     350.2532   
   91.20108     350.2532   
   95.49926     350.2532   
  100.00000     350.2532   
  104.71285     350.2532   
  109.64782     350.2532   
  114.81536     350.2532   
  120.22644     350.2532   
  125.89254     350.2532   
  131.82567     350.2532   
  138.03843     350.2532   
  144.54398     350.2532   
  151.35612     350.2532   
  158.48932     350.2532   
  165.95869     350.2532   
  173.78008     350.2532   
  181.97009     350.2532   
  190.54607     350.2532   
  199.52623     350.2532   
  208.92961     350.2532   
  218.77616     350.2532   
  229.08677     350.2532   
  239.88329     350.2532   
  251.18864     350.2532   
  263.02680     350.2532   
  275.42287     350.2532   
  288.40315     350.2532   
  301.99517     350.2532   
  316.22777     350.2532   
  331.13112     350.2532   
  346.73685     350.2532   
  363.07805     350.2532   
  380.18940     350.2532   
  398.10717     350.2532   
  416.86938     350.2532   
  436.51583     350.2532   
  457.08819     350.2532   
  478.63009     350.2532   
  501.18723     350.2532   
  524.80746     350.2532   
  549.54087     350.2532   
  575.43994     350.2532   
  602.55959     350.2532   
  630.95734     350.2532   
  660.69345     350.2532   
  691.83097     350.2532   
  724.43596     350.2532   
  758.57758     350.2532   
  794.32823     350.2532   
  831.76377     350.2532   
  870.96359     350.2532   
  912.01084     350.2532   
  954.99259     350.2532   
    1.00000k    350.2532   
    1.04713k    350.2532   
    1.09648k    350.2532   
    1.14815k    350.2532   
    1.20226k    350.2531   
    1.25893k    350.2531   
    1.31826k    350.2531   
    1.38038k    350.2531   
    1.44544k    350.2532   
    1.51356k    350.2531   
    1.58489k    350.2531   
    1.65959k    350.2531   
    1.73780k    350.2531   
    1.81970k    350.2531   
    1.90546k    350.2531   
    1.99526k    350.2531   
    2.08930k    350.2531   
    2.18776k    350.2531   
    2.29087k    350.2531   
    2.39883k    350.2531   
    2.51189k    350.2531   
    2.63027k    350.2531   
    2.75423k    350.2530   
    2.88403k    350.2530   
    3.01995k    350.2530   
    3.16228k    350.2530   
    3.31131k    350.2530   
    3.46737k    350.2530   
    3.63078k    350.2529   
    3.80189k    350.2529   
    3.98107k    350.2529   
    4.16869k    350.2529   
    4.36516k    350.2528   
    4.57088k    350.2528   
    4.78630k    350.2527   
    5.01187k    350.2527   
    5.24807k    350.2527   
    5.49541k    350.2526   
    5.75440k    350.2526   
    6.02560k    350.2525   
    6.30957k    350.2524   
    6.60693k    350.2524   
    6.91831k    350.2523   
    7.24436k    350.2522   
    7.58578k    350.2521   
    7.94328k    350.2520   
    8.31764k    350.2519   
    8.70964k    350.2518   
    9.12011k    350.2516   
    9.54993k    350.2515   
   10.00000k    350.2513   
   10.47129k    350.2511   
   10.96478k    350.2509   
   11.48154k    350.2507   
   12.02264k    350.2505   
   12.58925k    350.2503   
   13.18257k    350.2500   
   13.80384k    350.2497   
   14.45440k    350.2493   
   15.13561k    350.2489   
   15.84893k    350.2485   
   16.59587k    350.2481   
   17.37801k    350.2476   
   18.19701k    350.2470   
   19.05461k    350.2464   
   19.95262k    350.2458   
   20.89296k    350.2451   
   21.87762k    350.2443   
   22.90868k    350.2435   
   23.98833k    350.2425   
   25.11886k    350.2415   
   26.30268k    350.2404   
   27.54229k    350.2391   
   28.84032k    350.2378   
   30.19952k    350.2363   
   31.62278k    350.2347   
   33.11311k    350.2329   
   34.67369k    350.2309   
   36.30781k    350.2288   
   38.01894k    350.2264   
   39.81072k    350.2238   
   41.68694k    350.2210   
   43.65158k    350.2179   
   45.70882k    350.2145   
   47.86301k    350.2107   
   50.11872k    350.2067   
   52.48075k    350.2022   
   54.95409k    350.1973   
   57.54399k    350.1919   
   60.25596k    350.1859   
   63.09573k    350.1794   
   66.06934k    350.1723   
   69.18310k    350.1646   
   72.44360k    350.1560   
   75.85776k    350.1466   
   79.43282k    350.1363   
   83.17638k    350.1251   
   87.09636k    350.1127   
   91.20108k    350.0992   
   95.49926k    350.0843   
  100.00000k    350.0681   
  104.71285k    350.0502   
  109.64782k    350.0307   
  114.81536k    350.0092   
  120.22644k    349.9857   
  125.89254k    349.9599   
  131.82567k    349.9317   
  138.03843k    349.9007   
  144.54398k    349.8668   
  151.35612k    349.8295   
  158.48932k    349.7888   
  165.95869k    349.7441   
  173.78008k    349.6951   
  181.97009k    349.6414   
  190.54607k    349.5825   
  199.52623k    349.5180   
  208.92961k    349.4473   
  218.77616k    349.3698   
  229.08677k    349.2850   
  239.88329k    349.1920   
  251.18864k    349.0901   
  263.02680k    348.9785   
  275.42287k    348.8563   
  288.40315k    348.7224   
  301.99517k    348.5757   
  316.22777k    348.4152   
  331.13112k    348.2394   
  346.73685k    348.0469   
  363.07805k    347.8363   
  380.18940k    347.6057   
  398.10717k    347.3535   
  416.86938k    347.0775   
  436.51583k    346.7757   
  457.08819k    346.4456   
  478.63009k    346.0848   
  501.18723k    345.6905   
  524.80746k    345.2597   
  549.54087k    344.7891   
  575.43994k    344.2753   
  602.55959k    343.7147   
  630.95734k    343.1031   
  660.69345k    342.4362   
  691.83097k    341.7094   
  724.43596k    340.9177   
  758.57758k    340.0560   
  794.32823k    339.1187   
  831.76377k    338.0997   
  870.96359k    336.9930   
  912.01084k    335.7918   
  954.99259k    334.4895   
    1.00000x    333.0787   
    1.04713x    331.5522   
    1.09648x    329.9023   
    1.14815x    328.1212   
    1.20226x    326.2010   
    1.25893x    324.1339   
    1.31826x    321.9119   
    1.38038x    319.5273   
    1.44544x    316.9725   
    1.51356x    314.2405   
    1.58489x    311.3247   
    1.65959x    308.2190   
    1.73780x    304.9182   
    1.81970x    301.4181   
    1.90546x    297.7156   
    1.99526x    293.8085   
    2.08930x    289.6965   
    2.18776x    285.3803   
    2.29087x    280.8626   
    2.39883x    276.1475   
    2.51189x    271.2409   
    2.63027x    266.1504   
    2.75423x    260.8854   
    2.88403x    255.4568   
    3.01995x    249.8773   
    3.16228x    244.1608   
    3.31131x    238.3225   
    3.46737x    232.3787   
    3.63078x    226.3465   
    3.80189x    220.2437   
    3.98107x    214.0883   
    4.16869x    207.8985   
    4.36516x    201.6924   
    4.57088x    195.4877   
    4.78630x    189.3017   
    5.01187x    183.1508   
    5.24807x    177.0504   
    5.49541x    171.0153   
    5.75440x    165.0587   
    6.02560x    159.1929   
    6.30957x    153.4288   
    6.60693x    147.7762   
    6.91831x    142.2436   
    7.24436x    136.8381   
    7.58578x    131.5658   
    7.94328x    126.4317   
    8.31764x    121.4395   
    8.70964x    116.5921   
    9.12011x    111.8914   
    9.54993x    107.3384   
   10.00000x    102.9336   
y
   gain=  3.5025E+02    at=  7.5858E+02
               from=  1.0000E+00    to=  1.0000E+07
   fu= failed

          ***** job concluded
1****** HSPICE -- D-2010.03-SP1 32-BIT (May 26 2010) winnt ******               
 ******  
 reza adinepour - 9814303 - elec3-hw04-q1

  ******  job statistics summary tnom=  25.000 temp=  25.000 *****

  ******  HSPICE Threads Information  ******

  Command Line Threads Count                  :     1
  Available CPU Count                         :    12
  Actual Model Evaluation(Load) Threads Count :     1
  Actual Solver Threads Count                 :     1


  ******  Circuit Statistics  ******
  # nodes       =      11 # elements   =      13
  # resistors   =       5 # capacitors =       0 # inductors   =       0
  # mutual_inds =       0 # vccs       =       0 # vcvs        =       3
  # cccs        =       0 # ccvs       =       0 # volt_srcs   =       2
  # curr_srcs   =       1 # diodes     =       0 # bjts        =       0
  # jfets       =       0 # mosfets    =       2 # U elements  =       0
  # T elements  =       0 # W elements =       0 # B elements  =       0
  # S elements  =       0 # P elements =       0 # va device   =       0


  ******  Runtime Statistics (seconds)  ******

  analysis           time    # points   tot. iter  conv.iter
  op point           0.00           1          12
  ac analysis        0.16         351         351
  transient          0.05        5001         172          86 rev=         0
  readin             0.06
  errchk             0.01
  setup              0.02
  output             0.00


           total memory used          170  kbytes
           total cpu time            0.33 seconds
           total elapsed time        0.37 seconds
           job started at     10:45:20 04/22/2010
           job ended   at     10:45:21 04/22/2010


  lic: Release hspice token(s) 
