 ****** HSPICE -- D-2010.03-SP1 32-BIT (May 26 2010) winnt ******               
  Copyright (C) 2010 Synopsys, Inc. All Rights Reserved.                        
  Unpublished-rights reserved under US copyright laws.
  This program is protected by law and is subject to the 
  terms and conditions of the license agreement from Synopsys.
  Use of this program is your acceptance to be bound by the 
  license agreement. HSPICE is the trademark of Synopsys, Inc.
  Input File: e:\university\electerical\electronic 3\dr marvi\hw\hw04\simulation
  lic:  
  lic: FLEXlm: v8.5b 
  lic: USER:   r3z4                 HOSTNAME: DESKTOP-L98U3RU 
  lic: HOSTID: "04d4c4e5f7d6 00ffbd48a6cb 7cb27d07c1f5 7cb27d07c1f6 7eb27d07c1f5
 "
  lic: Using FLEXlm license file: 
  lic: 27000@elena 
  lic: Checkout 1 hspice 
  lic: License/Maintenance for hspice will expire on 31-dec-2020/2007.9 
  lic: NODE LOCKED license on hostid "04d4c4e5f7d6 00ffbd48a6cb 7cb27d07c1f5 7cb
 2
  lic:   
 Init: read install configuration file: C:\synopsys\Hspice_D-2010.03-SP1\meta.cfg
  **info** (e:\university\electerical\electronic 3\dr marvi\hw\hw04\simulation\bjt\generally case\hw04_rezaadinepour.sp:12) DC voltage reset to initial transient source value              in source        0:vin                 new dc=  0.0000D+00
 
      
 *****************************************************************
 ******  option summary
 ******
 runlvl  = 3         bypass  = 2         
1****** HSPICE -- D-2010.03-SP1 32-BIT (May 26 2010) winnt ******               
 ******  
 reza adinepour - 9814303 - elec3-hw04-q1

  ******  operating point information tnom=  25.000 temp=  25.000 *****
 ***** operating point status is all       simulation time is     0.     
    node    =voltage      node    =voltage      node    =voltage

 +0:1       = 600.0000m 0:3       = 600.5519m 0:4       =   1.2000 
 +0:5       = 600.0000m 0:6       =   1.7863  0:100     =   1.8000 


 ****  voltage sources

 subckt                                              
 element  0:vcc      0:vbe      0:vb       0:vin     
  volts      1.8000   600.0000m    1.2000     0.     
  current  -13.7443u -138.8005n -135.8501n -138.8005n
  power     24.7397u   83.2803n  163.0201n    0.     

     total voltage source power dissipation=   24.9860u       watts



 **** resistors

 subckt             
 element  0:rl      
  r value    1.0000k
  v drop    13.7443m
  current   13.7443u
  power    188.9057n


 **** bipolar junction transistors


 subckt                        
 element  0:q1       0:q2      
 model    0:mynpn    0:mynpn   
  ib       138.7999n  135.8501n
  ic        13.8801u   13.7443u
  vbe      600.0000m  599.4481m
  vce      600.5519m    1.1857 
  vbc     -551.8992u -586.2557m
  vs      -600.5519m   -1.7863 
  power      8.4190u   16.3781u
  betad    100.0011   101.1725 
  gm       539.9774u  534.6956u
  rpi      185.0998k  189.1191k
  rx         0.         0.     
  ro         3.6023x    3.6805x
  cpi        0.         0.     
  cmu        0.         0.     
  cbx        0.         0.     
  ccs        0.         0.     
  betaac    99.9497   101.1211 
  ft        85.9401g   85.0994g



 ***************************************************
   ******   pole/zero analysis  
 
 
    input =  0:vin          output = v(6)
 
       poles (rad/sec)                 poles ( hertz)
 real            imag            real            imag            
 -100.000x       0.              -15.9155x       0.              
 
 ***** no zeros found *****     coeffn =0.
  ***** constant factor = 0.
 ******  
 reza adinepour - 9814303 - elec3-hw04-q1

  ******  ac analysis tnom=  25.000 temp=  25.000 *****
x

        freq       gain    
                           
    1.00000     534.4163m  
    1.04713     534.4163m  
    1.09648     534.4163m  
    1.14815     534.4163m  
    1.20226     534.4163m  
    1.25893     534.4163m  
    1.31826     534.4163m  
    1.38038     534.4163m  
    1.44544     534.4163m  
    1.51356     534.4163m  
    1.58489     534.4163m  
    1.65959     534.4163m  
    1.73780     534.4163m  
    1.81970     534.4163m  
    1.90546     534.4163m  
    1.99526     534.4163m  
    2.08930     534.4163m  
    2.18776     534.4163m  
    2.29087     534.4163m  
    2.39883     534.4163m  
    2.51189     534.4163m  
    2.63027     534.4163m  
    2.75423     534.4163m  
    2.88403     534.4163m  
    3.01995     534.4163m  
    3.16228     534.4163m  
    3.31131     534.4163m  
    3.46737     534.4163m  
    3.63078     534.4163m  
    3.80189     534.4163m  
    3.98107     534.4163m  
    4.16869     534.4163m  
    4.36516     534.4163m  
    4.57088     534.4163m  
    4.78630     534.4163m  
    5.01187     534.4163m  
    5.24807     534.4163m  
    5.49541     534.4163m  
    5.75440     534.4163m  
    6.02560     534.4163m  
    6.30957     534.4163m  
    6.60693     534.4163m  
    6.91831     534.4163m  
    7.24436     534.4163m  
    7.58578     534.4163m  
    7.94328     534.4163m  
    8.31764     534.4163m  
    8.70964     534.4163m  
    9.12011     534.4163m  
    9.54993     534.4163m  
   10.00000     534.4163m  
   10.47129     534.4163m  
   10.96478     534.4163m  
   11.48154     534.4163m  
   12.02264     534.4163m  
   12.58925     534.4163m  
   13.18257     534.4163m  
   13.80384     534.4163m  
   14.45440     534.4163m  
   15.13561     534.4163m  
   15.84893     534.4163m  
   16.59587     534.4163m  
   17.37801     534.4163m  
   18.19701     534.4163m  
   19.05461     534.4163m  
   19.95262     534.4163m  
   20.89296     534.4163m  
   21.87762     534.4163m  
   22.90868     534.4163m  
   23.98833     534.4163m  
   25.11886     534.4163m  
   26.30268     534.4163m  
   27.54229     534.4163m  
   28.84032     534.4163m  
   30.19952     534.4163m  
   31.62278     534.4163m  
   33.11311     534.4163m  
   34.67369     534.4163m  
   36.30781     534.4163m  
   38.01894     534.4163m  
   39.81072     534.4163m  
   41.68694     534.4163m  
   43.65158     534.4163m  
   45.70882     534.4163m  
   47.86301     534.4163m  
   50.11872     534.4163m  
   52.48075     534.4163m  
   54.95409     534.4163m  
   57.54399     534.4163m  
   60.25596     534.4163m  
   63.09573     534.4163m  
   66.06934     534.4163m  
   69.18310     534.4163m  
   72.44360     534.4163m  
   75.85776     534.4163m  
   79.43282     534.4163m  
   83.17638     534.4163m  
   87.09636     534.4163m  
   91.20108     534.4163m  
   95.49926     534.4163m  
  100.00000     534.4163m  
  104.71285     534.4163m  
  109.64782     534.4163m  
  114.81536     534.4163m  
  120.22644     534.4163m  
  125.89254     534.4163m  
  131.82567     534.4163m  
  138.03843     534.4163m  
  144.54398     534.4163m  
  151.35612     534.4163m  
  158.48932     534.4163m  
  165.95869     534.4163m  
  173.78008     534.4163m  
  181.97009     534.4163m  
  190.54607     534.4163m  
  199.52623     534.4163m  
  208.92961     534.4163m  
  218.77616     534.4163m  
  229.08677     534.4163m  
  239.88329     534.4163m  
  251.18864     534.4163m  
  263.02680     534.4163m  
  275.42287     534.4163m  
  288.40315     534.4163m  
  301.99517     534.4163m  
  316.22777     534.4163m  
  331.13112     534.4163m  
  346.73685     534.4163m  
  363.07805     534.4163m  
  380.18940     534.4163m  
  398.10717     534.4163m  
  416.86938     534.4163m  
  436.51583     534.4163m  
  457.08819     534.4163m  
  478.63009     534.4163m  
  501.18723     534.4163m  
  524.80746     534.4163m  
  549.54087     534.4163m  
  575.43994     534.4163m  
  602.55959     534.4163m  
  630.95734     534.4163m  
  660.69345     534.4163m  
  691.83097     534.4163m  
  724.43596     534.4163m  
  758.57758     534.4163m  
  794.32823     534.4163m  
  831.76377     534.4163m  
  870.96359     534.4163m  
  912.01084     534.4163m  
  954.99259     534.4163m  
    1.00000k    534.4163m  
    1.04713k    534.4163m  
    1.09648k    534.4163m  
    1.14815k    534.4163m  
    1.20226k    534.4163m  
    1.25893k    534.4163m  
    1.31826k    534.4163m  
    1.38038k    534.4163m  
    1.44544k    534.4163m  
    1.51356k    534.4163m  
    1.58489k    534.4163m  
    1.65959k    534.4163m  
    1.73780k    534.4163m  
    1.81970k    534.4163m  
    1.90546k    534.4163m  
    1.99526k    534.4163m  
    2.08930k    534.4163m  
    2.18776k    534.4163m  
    2.29087k    534.4163m  
    2.39883k    534.4163m  
    2.51189k    534.4163m  
    2.63027k    534.4163m  
    2.75423k    534.4163m  
    2.88403k    534.4163m  
    3.01995k    534.4163m  
    3.16228k    534.4163m  
    3.31131k    534.4163m  
    3.46737k    534.4163m  
    3.63078k    534.4163m  
    3.80189k    534.4163m  
    3.98107k    534.4163m  
    4.16869k    534.4163m  
    4.36516k    534.4163m  
    4.57088k    534.4163m  
    4.78630k    534.4163m  
    5.01187k    534.4163m  
    5.24807k    534.4163m  
    5.49541k    534.4163m  
    5.75440k    534.4163m  
    6.02560k    534.4163m  
    6.30957k    534.4162m  
    6.60693k    534.4162m  
    6.91831k    534.4162m  
    7.24436k    534.4163m  
    7.58578k    534.4163m  
    7.94328k    534.4163m  
    8.31764k    534.4162m  
    8.70964k    534.4162m  
    9.12011k    534.4162m  
    9.54993k    534.4162m  
   10.00000k    534.4162m  
   10.47129k    534.4162m  
   10.96478k    534.4162m  
   11.48154k    534.4162m  
   12.02264k    534.4162m  
   12.58925k    534.4161m  
   13.18257k    534.4161m  
   13.80384k    534.4161m  
   14.45440k    534.4161m  
   15.13561k    534.4161m  
   15.84893k    534.4160m  
   16.59587k    534.4160m  
   17.37801k    534.4160m  
   18.19701k    534.4160m  
   19.05461k    534.4159m  
   19.95262k    534.4159m  
   20.89296k    534.4158m  
   21.87762k    534.4158m  
   22.90868k    534.4157m  
   23.98833k    534.4157m  
   25.11886k    534.4157m  
   26.30268k    534.4156m  
   27.54229k    534.4155m  
   28.84032k    534.4154m  
   30.19952k    534.4154m  
   31.62278k    534.4152m  
   33.11311k    534.4152m  
   34.67369k    534.4150m  
   36.30781k    534.4149m  
   38.01894k    534.4148m  
   39.81072k    534.4147m  
   41.68694k    534.4145m  
   43.65158k    534.4143m  
   45.70882k    534.4141m  
   47.86301k    534.4139m  
   50.11872k    534.4137m  
   52.48075k    534.4134m  
   54.95409k    534.4131m  
   57.54399k    534.4128m  
   60.25596k    534.4125m  
   63.09573k    534.4121m  
   66.06934k    534.4117m  
   69.18310k    534.4112m  
   72.44360k    534.4108m  
   75.85776k    534.4102m  
   79.43282k    534.4097m  
   83.17638k    534.4090m  
   87.09636k    534.4083m  
   91.20108k    534.4075m  
   95.49926k    534.4067m  
  100.00000k    534.4058m  
  104.71285k    534.4048m  
  109.64782k    534.4036m  
  114.81536k    534.4024m  
  120.22644k    534.4010m  
  125.89254k    534.3996m  
  131.82567k    534.3980m  
  138.03843k    534.3962m  
  144.54398k    534.3942m  
  151.35612k    534.3921m  
  158.48932k    534.3898m  
  165.95869k    534.3873m  
  173.78008k    534.3845m  
  181.97009k    534.3814m  
  190.54607k    534.3780m  
  199.52623k    534.3743m  
  208.92961k    534.3703m  
  218.77616k    534.3658m  
  229.08677k    534.3610m  
  239.88329k    534.3556m  
  251.18864k    534.3498m  
  263.02680k    534.3434m  
  275.42287k    534.3363m  
  288.40315k    534.3286m  
  301.99517k    534.3201m  
  316.22777k    534.3109m  
  331.13112k    534.3007m  
  346.73685k    534.2895m  
  363.07805k    534.2773m  
  380.18940k    534.2639m  
  398.10717k    534.2492m  
  416.86938k    534.2331m  
  436.51583k    534.2154m  
  457.08819k    534.1961m  
  478.63009k    534.1748m  
  501.18723k    534.1516m  
  524.80746k    534.1260m  
  549.54087k    534.0980m  
  575.43994k    534.0673m  
  602.55959k    534.0337m  
  630.95734k    533.9968m  
  660.69345k    533.9564m  
  691.83097k    533.9121m  
  724.43596k    533.8636m  
  758.57758k    533.8103m  
  794.32823k    533.7520m  
  831.76377k    533.6880m  
  870.96359k    533.6179m  
  912.01084k    533.5411m  
  954.99259k    533.4568m  
    1.00000x    533.3645m  
    1.04713x    533.2634m  
    1.09648x    533.1525m  
    1.14815x    533.0311m  
    1.20226x    532.8980m  
    1.25893x    532.7522m  
    1.31826x    532.5925m  
    1.38038x    532.4175m  
    1.44544x    532.2259m  
    1.51356x    532.0160m  
    1.58489x    531.7861m  
    1.65959x    531.5344m  
    1.73780x    531.2588m  
    1.81970x    530.9571m  
    1.90546x    530.6269m  
    1.99526x    530.2656m  
    2.08930x    529.8702m  
    2.18776x    529.4378m  
    2.29087x    528.9647m  
    2.39883x    528.4475m  
    2.51189x    527.8822m  
    2.63027x    527.2644m  
    2.75423x    526.5895m  
    2.88403x    525.8525m  
    3.01995x    525.0478m  
    3.16228x    524.1698m  
    3.31131x    523.2121m  
    3.46737x    522.1681m  
    3.63078x    521.0304m  
    3.80189x    519.7915m  
    3.98107x    518.4432m  
    4.16869x    516.9768m  
    4.36516x    515.3831m  
    4.57088x    513.6525m  
    4.78630x    511.7749m  
    5.01187x    509.7395m  
    5.24807x    507.5355m  
    5.49541x    505.1514m  
    5.75440x    502.5755m  
    6.02560x    499.7958m  
    6.30957x    496.8004m  
    6.60693x    493.5771m  
    6.91831x    490.1140m  
    7.24436x    486.3992m  
    7.58578x    482.4216m  
    7.94328x    478.1705m  
    8.31764x    473.6359m  
    8.70964x    468.8092m  
    9.12011x    463.6827m  
    9.54993x    458.2506m  
   10.00000x    452.5083m  
y
   gain=  5.3442E-01    at=  3.0200E+03
               from=  1.0000E+00    to=  1.0000E+07
   fu= failed

          ***** job concluded
1****** HSPICE -- D-2010.03-SP1 32-BIT (May 26 2010) winnt ******               
 ******  
 reza adinepour - 9814303 - elec3-hw04-q1

  ******  job statistics summary tnom=  25.000 temp=  25.000 *****

  ******  HSPICE Threads Information  ******

  Command Line Threads Count                  :     1
  Available CPU Count                         :    12
  Actual Model Evaluation(Load) Threads Count :     1
  Actual Solver Threads Count                 :     1


  ******  Circuit Statistics  ******
  # nodes       =       7 # elements   =       8
  # resistors   =       1 # capacitors =       1 # inductors   =       0
  # mutual_inds =       0 # vccs       =       0 # vcvs        =       0
  # cccs        =       0 # ccvs       =       0 # volt_srcs   =       4
  # curr_srcs   =       0 # diodes     =       0 # bjts        =       2
  # jfets       =       0 # mosfets    =       0 # U elements  =       0
  # T elements  =       0 # W elements =       0 # B elements  =       0
  # S elements  =       0 # P elements =       0 # va device   =       0


  ******  Runtime Statistics (seconds)  ******

  analysis           time    # points   tot. iter  conv.iter
  op point           0.01           1          12
  ac analysis        0.11         351         351
  transient          0.12        5001         172          86 rev=         0
  readin             0.10
  errchk             0.01
  setup              0.02
  output             0.00


           total memory used          172  kbytes
           total cpu time            0.45 seconds
           total elapsed time        0.52 seconds
           job started at     09:55:32 04/22/2010
           job ended   at     09:55:32 04/22/2010


  lic: Release hspice token(s) 
