
**** 11/02/20 08:16:48 ********* PSpice 9.2 (Mar 2000) ******** ID# 0 ********

 ** Profile: "SCHEMATIC1-whej"  [ E:\University\Communication Circuits\LAB\4\az4-SCHEMATIC1-whej.sim ] 


 ****     CIRCUIT DESCRIPTION


******************************************************************************




** Creating circuit file "az4-SCHEMATIC1-whej.sim.cir" 
** WARNING: THIS AUTOMATICALLY GENERATED FILE MAY BE OVERWRITTEN BY SUBSEQUENT SIMULATIONS

*Libraries: 
* Local Libraries :
* From [PSPICE NETLIST] section of h:\softwares\orcad\new\PSpice\PSpice.ini file:
.lib "nom.lib" 

*Analysis directives: 
.TRAN  0 100u 90u 
.PROBE V(*) I(*) W(*) D(*) NOISE(*) 
.INC ".\az4-SCHEMATIC1.net" 



**** INCLUDING az4-SCHEMATIC1.net ****
* source AZ4
Q_Q1         VO1 N00530 N00419 Q2N2222
V_V1         N00264 0 12
R_R3         N00530 N00264  120k  
R_R1         VO1 N00264  18k  
R_R4         0 N00530  39k  
R_R2         0 N00419  2.2k  
X_TX1    N00264 VO1 0 VO2 SCHEMATIC1_TX1 
C_C3         0 N00530  1u IC=1 
C_C2         N00419 VO2  47n IC=1 
C_C1         VO1 N00264  470p IC=1 

.subckt SCHEMATIC1_TX1 1 2 3 4  
K_TX1         L1_TX1 L2_TX1 1
L1_TX1         1 2 47.5uH
L2_TX1         3 4 1uH
.ends SCHEMATIC1_TX1

**** RESUMING az4-SCHEMATIC1-whej.sim.cir ****
.END

**** 11/02/20 08:16:48 ********* PSpice 9.2 (Mar 2000) ******** ID# 0 ********

 ** Profile: "SCHEMATIC1-whej"  [ E:\University\Communication Circuits\LAB\4\az4-SCHEMATIC1-whej.sim ] 


 ****     BJT MODEL PARAMETERS


******************************************************************************




               Q2N2222         
               NPN             
          IS   14.340000E-15 
          BF  255.9          
          NF    1            
         VAF   74.03         
         IKF     .2847       
         ISE   14.340000E-15 
          NE    1.307        
          BR    6.092        
          NR    1            
          RB   10            
          RC    1            
         CJE   22.010000E-12 
         MJE     .377        
         CJC    7.306000E-12 
         MJC     .3416       
          TF  411.100000E-12 
         XTF    3            
         VTF    1.7          
         ITF     .6          
          TR   46.910000E-09 
         XTB    1.5          
          CN    2.42         
           D     .87         


**** 11/02/20 08:16:48 ********* PSpice 9.2 (Mar 2000) ******** ID# 0 ********

 ** Profile: "SCHEMATIC1-whej"  [ E:\University\Communication Circuits\LAB\4\az4-SCHEMATIC1-whej.sim ] 


 ****     INITIAL TRANSIENT SOLUTION       TEMPERATURE =   27.000 DEG C


******************************************************************************



 NODE   VOLTAGE     NODE   VOLTAGE     NODE   VOLTAGE     NODE   VOLTAGE


(  VO1)   12.0000  (  VO2)    0.0000  (N00264)   12.0000 (N00419)    1.0000     

(N00530)   -1.0000 




    VOLTAGE SOURCE CURRENTS
    NAME         CURRENT

    V_V1        -1.083E-04

    TOTAL POWER DISSIPATION   1.30E-03  WATTS



          JOB CONCLUDED

          TOTAL JOB TIME             .03
