
**** 12/12/21 12:20:40 ********* PSpice 9.2 (Mar 2000) ******** ID# 1 ********

 ** Profile: "SCHEMATIC1-Elec2_Lab10"  [ E:\UNIVERSITY\ELECTERICAL\LABS\ELECTRONICS 1\Reports\Lab10\Simulation\elec1_lab10-SCHEMATIC1


 ****     CIRCUIT DESCRIPTION


******************************************************************************




** Creating circuit file "elec1_lab10-SCHEMATIC1-Elec2_Lab10.sim.cir" 
** WARNING: THIS AUTOMATICALLY GENERATED FILE MAY BE OVERWRITTEN BY SUBSEQUENT SIMULATIONS

*Libraries: 
* Local Libraries :
* From [PSPICE NETLIST] section of C:\Program Files\Orcad\PSpice\PSpice.ini file:
.lib "nom.lib" 

*Analysis directives: 
.AC DEC 1K 1 1000K
.PROBE V(*) I(*) W(*) D(*) NOISE(*) 
.INC ".\elec1_lab10-SCHEMATIC1.net" 



**** INCLUDING elec1_lab10-SCHEMATIC1.net ****
* source ELEC1_LAB10
Q_Q1         N00618 N00187 N00247 BC107A 
R_R1         N00187 N00618  10k  
V_V8         N03207 0 DC 0Vdc AC 1Vac 
V_V7         N00618 0 12Vdc
R_R2         0 N00187  18k  
C_C3         N03207 N00187  1u  
R_R3         0 N00247  1k  
R_R4         N00333 0  1k  
C_C4         N00247 N00333  1u  

**** RESUMING elec1_lab10-SCHEMATIC1-Elec2_Lab10.sim.cir ****
.END

**** 12/12/21 12:20:40 ********* PSpice 9.2 (Mar 2000) ******** ID# 1 ********

 ** Profile: "SCHEMATIC1-Elec2_Lab10"  [ E:\UNIVERSITY\ELECTERICAL\LABS\ELECTRONICS 1\Reports\Lab10\Simulation\elec1_lab10-SCHEMATIC1


 ****     BJT MODEL PARAMETERS


******************************************************************************




               BC107A          
               NPN             
          IS    7.049000E-15 
          BF  375.5          
          NF    1            
         VAF  116.3          
         IKF    4.589        
         ISE    7.049000E-15 
          NE    1.281        
          BR    2.611        
          NR    1            
         IKR    5.313        
         ISC  121.700000E-12 
          NC    1.865        
          RC    1.464        
         CJE   11.500000E-12 
         VJE     .5          
         MJE     .2717       
         CJC    5.380000E-12 
         VJC     .6218       
         MJC     .329        
          TF  451.000000E-12 
         XTF   17.43         
         VTF   10            
         ITF    6.194        
          TR   10.000000E-09 
         XTB    1.5          
          CN    2.42         
           D     .87         


**** 12/12/21 12:20:40 ********* PSpice 9.2 (Mar 2000) ******** ID# 1 ********

 ** Profile: "SCHEMATIC1-Elec2_Lab10"  [ E:\UNIVERSITY\ELECTERICAL\LABS\ELECTRONICS 1\Reports\Lab10\Simulation\elec1_lab10-SCHEMATIC1


 ****     SMALL SIGNAL BIAS SOLUTION       TEMPERATURE =   27.000 DEG C


******************************************************************************



 NODE   VOLTAGE     NODE   VOLTAGE     NODE   VOLTAGE     NODE   VOLTAGE


(N00187)    7.5034 (N00247)    6.7907 (N00333)    0.0000 (N00618)   12.0000     

(N03207)    0.0000 




    VOLTAGE SOURCE CURRENTS
    NAME         CURRENT

    V_V8         0.000E+00
    V_V7        -7.208E-03

    TOTAL POWER DISSIPATION   8.65E-02  WATTS



          JOB CONCLUDED

          TOTAL JOB TIME             .14
