
**** 11/09/21 12:40:44 ********* PSpice 9.2 (Mar 2000) ******** ID# 1 ********

 ** Profile: "SCHEMATIC1-Elec1_Lab6"  [ e:\university\electerical\labs\electronics 1\reports\lab6\simulation\elec1_lab6-schematic1-el


 ****     CIRCUIT DESCRIPTION


******************************************************************************




** Creating circuit file "elec1_lab6-schematic1-elec1_lab6.sim.cir" 
** WARNING: THIS AUTOMATICALLY GENERATED FILE MAY BE OVERWRITTEN BY SUBSEQUENT SIMULATIONS

*Libraries: 
* Local Libraries :
* From [PSPICE NETLIST] section of C:\Program Files\Orcad\PSpice\PSpice.ini file:
.lib "nom.lib" 

*Analysis directives: 
.TRAN  0 20m 0 
.PROBE V(*) I(*) W(*) D(*) NOISE(*) 
.INC ".\elec1_lab6-SCHEMATIC1.net" 



**** INCLUDING elec1_lab6-SCHEMATIC1.net ****
* source ELEC1_LAB6
Q_Q1         N05108 0 N00416 BC107A 
D_D2         N002251 N037300 D1N4148 
V_V4         N037300 0  
+SIN 0 7.5 100 0 0 0
R_R1         N002251 N00416  1k  
V_V5         N05108 0 20

**** RESUMING elec1_lab6-schematic1-elec1_lab6.sim.cir ****
.END

**** 11/09/21 12:40:44 ********* PSpice 9.2 (Mar 2000) ******** ID# 1 ********

 ** Profile: "SCHEMATIC1-Elec1_Lab6"  [ e:\university\electerical\labs\electronics 1\reports\lab6\simulation\elec1_lab6-schematic1-el


 ****     Diode MODEL PARAMETERS


******************************************************************************




               D1N4148         
          IS    2.682000E-09 
           N    1.836        
         ISR    1.565000E-09 
         IKF     .04417      
          BV  100            
         IBV  100.000000E-06 
          RS     .5664       
          TT   11.540000E-09 
         CJO    4.000000E-12 
          VJ     .5          
           M     .3333       


**** 11/09/21 12:40:44 ********* PSpice 9.2 (Mar 2000) ******** ID# 1 ********

 ** Profile: "SCHEMATIC1-Elec1_Lab6"  [ e:\university\electerical\labs\electronics 1\reports\lab6\simulation\elec1_lab6-schematic1-el


 ****     BJT MODEL PARAMETERS


******************************************************************************




               BC107A          
               NPN             
          IS    7.049000E-15 
          BF  375.5          
          NF    1            
         VAF  116.3          
         IKF    4.589        
         ISE    7.049000E-15 
          NE    1.281        
          BR    2.611        
          NR    1            
         IKR    5.313        
         ISC  121.700000E-12 
          NC    1.865        
          RC    1.464        
         CJE   11.500000E-12 
         VJE     .5          
         MJE     .2717       
         CJC    5.380000E-12 
         VJC     .6218       
         MJC     .329        
          TF  451.000000E-12 
         XTF   17.43         
         VTF   10            
         ITF    6.194        
          TR   10.000000E-09 
         XTB    1.5          
          CN    2.42         
           D     .87         


**** 11/09/21 12:40:44 ********* PSpice 9.2 (Mar 2000) ******** ID# 1 ********

 ** Profile: "SCHEMATIC1-Elec1_Lab6"  [ e:\university\electerical\labs\electronics 1\reports\lab6\simulation\elec1_lab6-schematic1-el


 ****     INITIAL TRANSIENT SOLUTION       TEMPERATURE =   27.000 DEG C


******************************************************************************



 NODE   VOLTAGE     NODE   VOLTAGE     NODE   VOLTAGE     NODE   VOLTAGE


(N00416) 269.6E-06 (N05108)   20.0000 (N002251) 269.5E-06                       

(N037300)    0.0000                   




    VOLTAGE SOURCE CURRENTS
    NAME         CURRENT

    V_V4         2.345E-11
    V_V5        -1.528E-10

    TOTAL POWER DISSIPATION   3.06E-09  WATTS



          JOB CONCLUDED

          TOTAL JOB TIME             .02
