
**** 12/29/21 13:30:25 ********* PSpice 9.2 (Mar 2000) ******** ID# 1 ********

 ** Profile: "SCHEMATIC1-Elec1Lab_Final"  [ E:\UNIVERSITY\ELECTERICAL\LABS\ELECTRONICS 1\Reports\Finall\Simulation\elec1lab_finall-SC


 ****     CIRCUIT DESCRIPTION


******************************************************************************




** Creating circuit file "elec1lab_finall-SCHEMATIC1-Elec1Lab_Final.sim.cir" 
** WARNING: THIS AUTOMATICALLY GENERATED FILE MAY BE OVERWRITTEN BY SUBSEQUENT SIMULATIONS

*Libraries: 
* Local Libraries :
* From [PSPICE NETLIST] section of C:\Program Files\Orcad\PSpice\PSpice.ini file:
.lib "nom.lib" 

*Analysis directives: 
.AC DEC 1K 1 1000K
.PROBE V(*) I(*) W(*) D(*) NOISE(*) 
.INC ".\elec1lab_finall-SCHEMATIC1.net" 



**** INCLUDING elec1lab_finall-SCHEMATIC1.net ****
* source ELEC1LAB_FINALL
Q_Q1         N01602 N00645 N00728 Q2N2222A/ZTX 
R_R1         0 N00728  100  
R_R2         N01200 N01602  150k  
V_V3         VIN 0 DC 0Vdc AC 1Vac 
R_R3         0 N01200  20k  
C_C6         0 N01289  0.1u  
R_R4         N01260 N01602  2.2k  
C_C7         N00728 VOUT  100n  
R_R5         N00645 N01602  91k  
C_C8         N01260 N00645  100n  
R_R6         0 N00645  100k  
Q_Q2         N01260 N01200 N01289 Q2N2222A/ZTX 
R_R7         VOUT 0  1k  
R_R8         0 N01289  100  
C_C1         VIN N01200  100u  
V_V1         N01602 0 10Vdc

**** RESUMING elec1lab_finall-SCHEMATIC1-Elec1Lab_Final.sim.cir ****
.END

**** 12/29/21 13:30:25 ********* PSpice 9.2 (Mar 2000) ******** ID# 1 ********

 ** Profile: "SCHEMATIC1-Elec1Lab_Final"  [ E:\UNIVERSITY\ELECTERICAL\LABS\ELECTRONICS 1\Reports\Finall\Simulation\elec1lab_finall-SC


 ****     BJT MODEL PARAMETERS


******************************************************************************




               Q2N2222A/ZTX    
               NPN             
          IS   30.611000E-15 
          BF  220            
          NF    1.00124      
         VAF  104            
         IKF     .52         
         ISE    7.500000E-15 
          NE    1.41         
          BR    4            
          NR    1.005        
         VAR   28            
         IKR     .24         
         ISC   10.652500E-12 
          NC    1.3728       
          RB     .13         
          RE     .22         
          RC     .12         
         CJE   27.010000E-12 
         CJC    9.120000E-12 
         VJC     .4089       
         MJC     .3508       
          TF  325.000000E-12 
          TR  100.000000E-09 
          CN    2.42         
           D     .87         


**** 12/29/21 13:30:25 ********* PSpice 9.2 (Mar 2000) ******** ID# 1 ********

 ** Profile: "SCHEMATIC1-Elec1Lab_Final"  [ E:\UNIVERSITY\ELECTERICAL\LABS\ELECTRONICS 1\Reports\Finall\Simulation\elec1lab_finall-SC


 ****     SMALL SIGNAL BIAS SOLUTION       TEMPERATURE =   27.000 DEG C


******************************************************************************



 NODE   VOLTAGE     NODE   VOLTAGE     NODE   VOLTAGE     NODE   VOLTAGE


(  VIN)    0.0000  ( VOUT)    0.0000  (N00645)    2.1375 (N00728)    1.4391     

(N01200)     .9401 (N01260)    3.7504 (N01289)     .2854 (N01602)   10.0000 




    VOLTAGE SOURCE CURRENTS
    NAME         CURRENT

    V_V3         0.000E+00
    V_V1        -1.731E-02

    TOTAL POWER DISSIPATION   1.73E-01  WATTS



          JOB CONCLUDED

          TOTAL JOB TIME             .20
