 ****** HSPICE -- D-2010.03-SP1 32-BIT (May 26 2010) winnt ******               
  Copyright (C) 2010 Synopsys, Inc. All Rights Reserved.                        
  Unpublished-rights reserved under US copyright laws.
  This program is protected by law and is subject to the 
  terms and conditions of the license agreement from Synopsys.
  Use of this program is your acceptance to be bound by the 
  license agreement. HSPICE is the trademark of Synopsys, Inc.
  Input File: e:\university\electerical\electronic 3\dr marvi\hw\hw04\simulation
  lic:  
  lic: FLEXlm: v8.5b 
  lic: USER:   r3z4                 HOSTNAME: DESKTOP-L98U3RU 
  lic: HOSTID: "04d4c4e5f7d6 00ffbd48a6cb 7cb27d07c1f5 7cb27d07c1f6 7eb27d07c1f5
 "
  lic: Using FLEXlm license file: 
  lic: 27000@elena 
  lic: Checkout 1 hspice 
  lic: License/Maintenance for hspice will expire on 31-dec-2020/2007.9 
  lic: NODE LOCKED license on hostid "04d4c4e5f7d6 00ffbd48a6cb 7cb27d07c1f5 7cb
 2
  lic:   
 Init: read install configuration file: C:\synopsys\Hspice_D-2010.03-SP1\meta.cfg
  **info** (e:\university\electerical\electronic 3\dr marvi\hw\hw04\simulation\bjt\active load\hw04_rezaadinepour.sp:12) DC voltage reset to initial transient source value              in source        0:vin                 new dc=  0.0000D+00
 
      
 *****************************************************************
 ******  option summary
 ******
 runlvl  = 3         bypass  = 2         
1****** HSPICE -- D-2010.03-SP1 32-BIT (May 26 2010) winnt ******               
 ******  
 reza adinepour - 9814303 - elec3-hw04-q1

  ******  operating point information tnom=  25.000 temp=  25.000 *****
 ***** operating point status is all       simulation time is     0.     
    node    =voltage      node    =voltage      node    =voltage

 +0:1       = 600.0000m 0:3       = 582.5571m 0:4       =   1.2000 
 +0:5       = 600.0000m 0:6       = 600.5208m 0:100     =   1.8000 


 ****  voltage sources

 subckt                                              
 element  0:vcc      0:vbe      0:vb       0:vin     
  volts      1.8000   600.0000m    1.2000     0.     
  current   -1.2005p -138.8006n  -13.8751u -138.8006n
  power      2.1609p   83.2803n   16.6502u    0.     

     total voltage source power dissipation=   16.7335u       watts



 **** bipolar junction transistors


 subckt                                   
 element  0:q1       0:q2       0:q3      
 model    0:mynpn    0:mynpn    0:mynpn   
  ib       138.7999n   13.8751u  -10.0000a
  ic        13.8752u    1.8000p   -1.0000f
  vbe      600.0000m  617.4429m   -1.1995 
  vce      582.5571m   17.9636m   -1.1995 
  vbc       17.4429m  599.4792m    0.     
  vs      -582.5571m -600.5208m -600.5208m
  power      8.1663u    8.5671u    1.2115f
  betad     99.9651   129.7261n  100.0000 
  gm       539.7829u  529.1328u  -38.0692f
  rpi      185.0998k   93.8755k  1.199e+17
  rx         0.         0.         0.     
  ro         3.6023x    1.9108k  2.570e+13
  cpi        0.         0.         0.     
  cmu        0.         0.         0.     
  cbx        0.         0.         0.     
  ccs        0.         0.         0.     
  betaac    99.9137    49.6726    -4.5663k
  ft        85.9091g   43.8091x   12.2537 



 ***************************************************
   ******   pole/zero analysis  
 
 
    input =  0:vin          output = v(6)
 
       poles (rad/sec)                 poles ( hertz)
 real            imag            real            imag            
 -53.4787x       0.              -8.51140x       0.              
 
 ***** no zeros found *****     coeffn =-267.117u
  ***** constant factor = -267.117k
 ******  
 reza adinepour - 9814303 - elec3-hw04-q1

  ******  ac analysis tnom=  25.000 temp=  25.000 *****
x

        freq       gain    
                           
    1.00000     998.9674m  
    1.04713     998.9674m  
    1.09648     998.9674m  
    1.14815     998.9674m  
    1.20226     998.9674m  
    1.25893     998.9674m  
    1.31826     998.9674m  
    1.38038     998.9674m  
    1.44544     998.9674m  
    1.51356     998.9674m  
    1.58489     998.9674m  
    1.65959     998.9674m  
    1.73780     998.9674m  
    1.81970     998.9674m  
    1.90546     998.9674m  
    1.99526     998.9674m  
    2.08930     998.9674m  
    2.18776     998.9674m  
    2.29087     998.9674m  
    2.39883     998.9674m  
    2.51189     998.9674m  
    2.63027     998.9674m  
    2.75423     998.9674m  
    2.88403     998.9674m  
    3.01995     998.9674m  
    3.16228     998.9674m  
    3.31131     998.9674m  
    3.46737     998.9674m  
    3.63078     998.9674m  
    3.80189     998.9674m  
    3.98107     998.9674m  
    4.16869     998.9674m  
    4.36516     998.9674m  
    4.57088     998.9674m  
    4.78630     998.9674m  
    5.01187     998.9674m  
    5.24807     998.9674m  
    5.49541     998.9674m  
    5.75440     998.9674m  
    6.02560     998.9674m  
    6.30957     998.9674m  
    6.60693     998.9674m  
    6.91831     998.9674m  
    7.24436     998.9674m  
    7.58578     998.9674m  
    7.94328     998.9674m  
    8.31764     998.9674m  
    8.70964     998.9674m  
    9.12011     998.9674m  
    9.54993     998.9674m  
   10.00000     998.9674m  
   10.47129     998.9674m  
   10.96478     998.9674m  
   11.48154     998.9674m  
   12.02264     998.9674m  
   12.58925     998.9674m  
   13.18257     998.9674m  
   13.80384     998.9674m  
   14.45440     998.9674m  
   15.13561     998.9674m  
   15.84893     998.9674m  
   16.59587     998.9674m  
   17.37801     998.9674m  
   18.19701     998.9674m  
   19.05461     998.9674m  
   19.95262     998.9674m  
   20.89296     998.9674m  
   21.87762     998.9674m  
   22.90868     998.9674m  
   23.98833     998.9674m  
   25.11886     998.9674m  
   26.30268     998.9674m  
   27.54229     998.9674m  
   28.84032     998.9674m  
   30.19952     998.9674m  
   31.62278     998.9674m  
   33.11311     998.9674m  
   34.67369     998.9674m  
   36.30781     998.9674m  
   38.01894     998.9674m  
   39.81072     998.9674m  
   41.68694     998.9674m  
   43.65158     998.9674m  
   45.70882     998.9674m  
   47.86301     998.9674m  
   50.11872     998.9674m  
   52.48075     998.9674m  
   54.95409     998.9674m  
   57.54399     998.9674m  
   60.25596     998.9674m  
   63.09573     998.9674m  
   66.06934     998.9674m  
   69.18310     998.9674m  
   72.44360     998.9674m  
   75.85776     998.9674m  
   79.43282     998.9674m  
   83.17638     998.9674m  
   87.09636     998.9674m  
   91.20108     998.9674m  
   95.49926     998.9674m  
  100.00000     998.9674m  
  104.71285     998.9674m  
  109.64782     998.9674m  
  114.81536     998.9674m  
  120.22644     998.9674m  
  125.89254     998.9674m  
  131.82567     998.9674m  
  138.03843     998.9674m  
  144.54398     998.9674m  
  151.35612     998.9674m  
  158.48932     998.9674m  
  165.95869     998.9674m  
  173.78008     998.9674m  
  181.97009     998.9674m  
  190.54607     998.9674m  
  199.52623     998.9674m  
  208.92961     998.9674m  
  218.77616     998.9674m  
  229.08677     998.9674m  
  239.88329     998.9674m  
  251.18864     998.9674m  
  263.02680     998.9674m  
  275.42287     998.9674m  
  288.40315     998.9674m  
  301.99517     998.9674m  
  316.22777     998.9674m  
  331.13112     998.9674m  
  346.73685     998.9674m  
  363.07805     998.9674m  
  380.18940     998.9674m  
  398.10717     998.9674m  
  416.86938     998.9674m  
  436.51583     998.9674m  
  457.08819     998.9674m  
  478.63009     998.9674m  
  501.18723     998.9674m  
  524.80746     998.9674m  
  549.54087     998.9674m  
  575.43994     998.9674m  
  602.55959     998.9674m  
  630.95734     998.9674m  
  660.69345     998.9674m  
  691.83097     998.9674m  
  724.43596     998.9674m  
  758.57758     998.9674m  
  794.32823     998.9674m  
  831.76377     998.9674m  
  870.96359     998.9674m  
  912.01084     998.9674m  
  954.99259     998.9674m  
    1.00000k    998.9674m  
    1.04713k    998.9674m  
    1.09648k    998.9674m  
    1.14815k    998.9674m  
    1.20226k    998.9674m  
    1.25893k    998.9674m  
    1.31826k    998.9674m  
    1.38038k    998.9674m  
    1.44544k    998.9674m  
    1.51356k    998.9674m  
    1.58489k    998.9674m  
    1.65959k    998.9674m  
    1.73780k    998.9674m  
    1.81970k    998.9674m  
    1.90546k    998.9674m  
    1.99526k    998.9674m  
    2.08930k    998.9674m  
    2.18776k    998.9673m  
    2.29087k    998.9673m  
    2.39883k    998.9673m  
    2.51189k    998.9673m  
    2.63027k    998.9673m  
    2.75423k    998.9673m  
    2.88403k    998.9673m  
    3.01995k    998.9673m  
    3.16228k    998.9673m  
    3.31131k    998.9673m  
    3.46737k    998.9673m  
    3.63078k    998.9673m  
    3.80189k    998.9673m  
    3.98107k    998.9673m  
    4.16869k    998.9673m  
    4.36516k    998.9672m  
    4.57088k    998.9673m  
    4.78630k    998.9672m  
    5.01187k    998.9672m  
    5.24807k    998.9672m  
    5.49541k    998.9672m  
    5.75440k    998.9672m  
    6.02560k    998.9671m  
    6.30957k    998.9671m  
    6.60693k    998.9671m  
    6.91831k    998.9671m  
    7.24436k    998.9670m  
    7.58578k    998.9670m  
    7.94328k    998.9670m  
    8.31764k    998.9669m  
    8.70964k    998.9669m  
    9.12011k    998.9668m  
    9.54993k    998.9668m  
   10.00000k    998.9667m  
   10.47129k    998.9666m  
   10.96478k    998.9666m  
   11.48154k    998.9665m  
   12.02264k    998.9664m  
   12.58925k    998.9663m  
   13.18257k    998.9662m  
   13.80384k    998.9661m  
   14.45440k    998.9659m  
   15.13561k    998.9658m  
   15.84893k    998.9656m  
   16.59587k    998.9655m  
   17.37801k    998.9653m  
   18.19701k    998.9651m  
   19.05461k    998.9649m  
   19.95262k    998.9647m  
   20.89296k    998.9644m  
   21.87762k    998.9641m  
   22.90868k    998.9638m  
   23.98833k    998.9634m  
   25.11886k    998.9631m  
   26.30268k    998.9626m  
   27.54229k    998.9621m  
   28.84032k    998.9616m  
   30.19952k    998.9611m  
   31.62278k    998.9605m  
   33.11311k    998.9598m  
   34.67369k    998.9591m  
   36.30781k    998.9583m  
   38.01894k    998.9574m  
   39.81072k    998.9565m  
   41.68694k    998.9554m  
   43.65158k    998.9543m  
   45.70882k    998.9530m  
   47.86301k    998.9516m  
   50.11872k    998.9501m  
   52.48075k    998.9484m  
   54.95409k    998.9466m  
   57.54399k    998.9446m  
   60.25596k    998.9424m  
   63.09573k    998.9400m  
   66.06934k    998.9373m  
   69.18310k    998.9344m  
   72.44360k    998.9312m  
   75.85776k    998.9277m  
   79.43282k    998.9239m  
   83.17638k    998.9197m  
   87.09636k    998.9151m  
   91.20108k    998.9101m  
   95.49926k    998.9045m  
  100.00000k    998.8984m  
  104.71285k    998.8918m  
  109.64782k    998.8845m  
  114.81536k    998.8765m  
  120.22644k    998.8677m  
  125.89254k    998.8581m  
  131.82567k    998.8476m  
  138.03843k    998.8360m  
  144.54398k    998.8233m  
  151.35612k    998.8095m  
  158.48932k    998.7942m  
  165.95869k    998.7775m  
  173.78008k    998.7592m  
  181.97009k    998.7391m  
  190.54607k    998.7171m  
  199.52623k    998.6930m  
  208.92961k    998.6666m  
  218.77616k    998.6376m  
  229.08677k    998.6057m  
  239.88329k    998.5708m  
  251.18864k    998.5326m  
  263.02680k    998.4907m  
  275.42287k    998.4448m  
  288.40315k    998.3944m  
  301.99517k    998.3392m  
  316.22777k    998.2787m  
  331.13112k    998.2123m  
  346.73685k    998.1395m  
  363.07805k    998.0597m  
  380.18940k    997.9723m  
  398.10717k    997.8764m  
  416.86938k    997.7714m  
  436.51583k    997.6562m  
  457.08819k    997.5300m  
  478.63009k    997.3916m  
  501.18723k    997.2400m  
  524.80746k    997.0738m  
  549.54087k    996.8917m  
  575.43994k    996.6921m  
  602.55959k    996.4734m  
  630.95734k    996.2338m  
  660.69345k    995.9713m  
  691.83097k    995.6836m  
  724.43596k    995.3685m  
  758.57758k    995.0234m  
  794.32823k    994.6453m  
  831.76377k    994.2313m  
  870.96359k    993.7779m  
  912.01084k    993.2815m  
  954.99259k    992.7380m  
    1.00000x    992.1432m  
    1.04713x    991.4922m  
    1.09648x    990.7799m  
    1.14815x    990.0005m  
    1.20226x    989.1481m  
    1.25893x    988.2160m  
    1.31826x    987.1970m  
    1.38038x    986.0833m  
    1.44544x    984.8665m  
    1.51356x    983.5374m  
    1.58489x    982.0863m  
    1.65959x    980.5025m  
    1.73780x    978.7747m  
    1.81970x    976.8907m  
    1.90546x    974.8374m  
    1.99526x    972.6007m  
    2.08930x    970.1659m  
    2.18776x    967.5171m  
    2.29087x    964.6375m  
    2.39883x    961.5095m  
    2.51189x    958.1144m  
    2.63027x    954.4328m  
    2.75423x    950.4444m  
    2.88403x    946.1281m  
    3.01995x    941.4623m  
    3.16228x    936.4249m  
    3.31131x    930.9934m  
    3.46737x    925.1451m  
    3.63078x    918.8577m  
    3.80189x    912.1087m  
    3.98107x    904.8769m  
    4.16869x    897.1418m  
    4.36516x    888.8843m  
    4.57088x    880.0871m  
    4.78630x    870.7351m  
    5.01187x    860.8158m  
    5.24807x    850.3197m  
    5.49541x    839.2410m  
    5.75440x    827.5776m  
    6.02560x    815.3315m  
    6.30957x    802.5094m  
    6.60693x    789.1228m  
    6.91831x    775.1879m  
    7.24436x    760.7259m  
    7.58578x    745.7630m  
    7.94328x    730.3300m  
    8.31764x    714.4622m  
    8.70964x    698.1991m  
    9.12011x    681.5837m  
    9.54993x    664.6621m  
   10.00000x    647.4830m  
y
   gain=  9.9897E-01    at=  6.6069E+02
               from=  1.0000E+00    to=  1.0000E+07
   fu= failed

          ***** job concluded
1****** HSPICE -- D-2010.03-SP1 32-BIT (May 26 2010) winnt ******               
 ******  
 reza adinepour - 9814303 - elec3-hw04-q1

  ******  job statistics summary tnom=  25.000 temp=  25.000 *****

  ******  HSPICE Threads Information  ******

  Command Line Threads Count                  :     1
  Available CPU Count                         :    12
  Actual Model Evaluation(Load) Threads Count :     1
  Actual Solver Threads Count                 :     1


  ******  Circuit Statistics  ******
  # nodes       =       7 # elements   =       8
  # resistors   =       0 # capacitors =       1 # inductors   =       0
  # mutual_inds =       0 # vccs       =       0 # vcvs        =       0
  # cccs        =       0 # ccvs       =       0 # volt_srcs   =       4
  # curr_srcs   =       0 # diodes     =       0 # bjts        =       3
  # jfets       =       0 # mosfets    =       0 # U elements  =       0
  # T elements  =       0 # W elements =       0 # B elements  =       0
  # S elements  =       0 # P elements =       0 # va device   =       0


  ******  Runtime Statistics (seconds)  ******

  analysis           time    # points   tot. iter  conv.iter
  op point           0.01           1          20
  ac analysis        0.08         351         351
  transient          0.09        5001         172          86 rev=         0
  readin             0.11
  errchk             0.01
  setup              0.02
  output             0.00


           total memory used          172  kbytes
           total cpu time            0.38 seconds
           total elapsed time        0.45 seconds
           job started at     10:02:47 04/22/2010
           job ended   at     10:02:47 04/22/2010


  lic: Release hspice token(s) 
