
**** 11/13/21 17:04:03 ***** PSpice 16.6.0 (October 2012) ***** ID# 0 ********

 ** Profile: "SCHEMATIC1-Pspice"  [ C:\USERS\TOP\DESKTOP\Pspice\Pspice-PSpiceFiles\SCHEMATIC1\Pspice.sim ] 


 ****     CIRCUIT DESCRIPTION


******************************************************************************




** Creating circuit file "Pspice.cir" 
** WARNING: THIS AUTOMATICALLY GENERATED FILE MAY BE OVERWRITTEN BY SUBSEQUENT SIMULATIONS

*Libraries: 
* Profile Libraries :
* Local Libraries :
* From [PSPICE NETLIST] section of C:\SPB_Data\cdssetup\OrCAD_PSpice/16.6.0/PSpice.ini file:
.lib "nom.lib" 

*Analysis directives: 
.TRAN  0 1ms 0 1u 
.OPTIONS ADVCONV
.PROBE64 V(alias(*)) I(alias(*)) W(alias(*)) D(alias(*)) NOISE(alias(*)) 
.INC "..\SCHEMATIC1.net" 



**** INCLUDING SCHEMATIC1.net ****
* source PSPICE
D_D2         N01330 0 D1N4148 
D_D1         N01324 0 D1N4148 
R_R1         N01192 N01198  0.5k  
C_C1         N01212 N01226  6.8n IC=0 
R_R3         N01226 N01198  10.53k  
Q_Q2         N01192 N01226 N01330 Q2N2222
V_V1         N01198 0 10Vdc
C_C2         N01234 N01192  6.8n IC=0 
Q_Q1         N01212 N01234 N01324 Q2N2222
R_R2         N01234 N01198  31.6k  
R_R4         N01212 N01198  0.5k  

**** RESUMING Pspice.cir ****
.END

**** 11/13/21 17:04:03 ***** PSpice 16.6.0 (October 2012) ***** ID# 0 ********

 ** Profile: "SCHEMATIC1-Pspice"  [ C:\USERS\TOP\DESKTOP\Pspice\Pspice-PSpiceFiles\SCHEMATIC1\Pspice.sim ] 


 ****     Diode MODEL PARAMETERS


******************************************************************************




               D1N4148         
          IS    2.682000E-09 
           N    1.836        
         ISR    1.565000E-09 
         IKF     .04417      
          BV  100            
         IBV  100.000000E-06 
          RS     .5664       
          TT   11.540000E-09 
         CJO    4.000000E-12 
          VJ     .5          
           M     .3333       


**** 11/13/21 17:04:03 ***** PSpice 16.6.0 (October 2012) ***** ID# 0 ********

 ** Profile: "SCHEMATIC1-Pspice"  [ C:\USERS\TOP\DESKTOP\Pspice\Pspice-PSpiceFiles\SCHEMATIC1\Pspice.sim ] 


 ****     BJT MODEL PARAMETERS


******************************************************************************




               Q2N2222         
               NPN             
       LEVEL    1            
          IS   14.340000E-15 
          BF  255.9          
          NF    1            
         VAF   74.03         
         IKF     .2847       
         ISE   14.340000E-15 
          NE    1.307        
          BR    6.092        
          NR    1            
         ISS    0            
          RB   10            
          RE    0            
          RC    1            
         CJE   22.010000E-12 
         VJE     .75         
         MJE     .377        
         CJC    7.306000E-12 
         VJC     .75         
         MJC     .3416       
        XCJC    1            
         CJS    0            
         VJS     .75         
          TF  411.100000E-12 
         XTF    3            
         VTF    1.7          
         ITF     .6          
          TR   46.910000E-09 
         XTB    1.5          
          KF    0            
          AF    1            
          CN    2.42         
           D     .87         


**** 11/13/21 17:04:03 ***** PSpice 16.6.0 (October 2012) ***** ID# 0 ********

 ** Profile: "SCHEMATIC1-Pspice"  [ C:\USERS\TOP\DESKTOP\Pspice\Pspice-PSpiceFiles\SCHEMATIC1\Pspice.sim ] 


 ****     INITIAL TRANSIENT SOLUTION       TEMPERATURE =   27.000 DEG C


******************************************************************************



 NODE   VOLTAGE     NODE   VOLTAGE     NODE   VOLTAGE     NODE   VOLTAGE


(N01192)    1.4805 (N01198)   10.0000 (N01212)    1.4776 (N01226)    1.4776     

(N01234)    1.4805 (N01324)     .7578 (N01330)     .7558 




    VOLTAGE SOURCE CURRENTS
    NAME         CURRENT

    V_V1        -3.516E-02

    TOTAL POWER DISSIPATION   3.52E-01  WATTS



          JOB CONCLUDED

**** 11/13/21 17:04:03 ***** PSpice 16.6.0 (October 2012) ***** ID# 0 ********

 ** Profile: "SCHEMATIC1-Pspice"  [ C:\USERS\TOP\DESKTOP\Pspice\Pspice-PSpiceFiles\SCHEMATIC1\Pspice.sim ] 


 ****     JOB STATISTICS SUMMARY


******************************************************************************



  Total job time (using Solver 1)   =         .05
