 ****** HSPICE -- D-2010.03-SP1 32-BIT (May 26 2010) winnt ******               
  Copyright (C) 2010 Synopsys, Inc. All Rights Reserved.                        
  Unpublished-rights reserved under US copyright laws.
  This program is protected by law and is subject to the 
  terms and conditions of the license agreement from Synopsys.
  Use of this program is your acceptance to be bound by the 
  license agreement. HSPICE is the trademark of Synopsys, Inc.
  Input File: e:\university\electerical\electronic 3\dr marvi\hw\hw04\simulation
  lic:  
  lic: FLEXlm: v8.5b 
  lic: USER:   r3z4                 HOSTNAME: DESKTOP-L98U3RU 
  lic: HOSTID: "04d4c4e5f7d6 00ffbd48a6cb 7cb27d07c1f5 7cb27d07c1f6 7eb27d07c1f5
 "
  lic: Using FLEXlm license file: 
  lic: 27000@elena 
  lic: Checkout 1 hspice 
  lic: License/Maintenance for hspice will expire on 31-dec-2020/2007.9 
  lic: NODE LOCKED license on hostid "04d4c4e5f7d6 00ffbd48a6cb 7cb27d07c1f5 7cb
 2
  lic:   
 Init: read install configuration file: C:\synopsys\Hspice_D-2010.03-SP1\meta.cfg
  **info** (e:\university\electerical\electronic 3\dr marvi\hw\hw04\simulation\mos\active load\hw04_q1_rezaadinepour.sp:12) DC voltage reset to initial transient source value              in source        0:vin                 new dc=  0.0000D+00
 
      
 **info** set option symb=1 internally to help for convergence.
 *****************************************************************
 ******  option summary
 ******
 runlvl  = 3         bypass  = 2         
1****** HSPICE -- D-2010.03-SP1 32-BIT (May 26 2010) winnt ******               
 ******  
 reza adinepour - 9814303 - elec3-hw04-q1

  ******  operating point information tnom=  25.000 temp=  25.000 *****
 ***** operating point status is all       simulation time is     0.     
    node    =voltage      node    =voltage      node    =voltage

 +0:1       = 600.0000m 0:2       = 298.0104m 0:3       = 298.0104m
 +0:4       =   1.2000  0:5       = 600.0000m 0:100     =   1.8000 


 ****  voltage sources

 subckt                                              
 element  0:vdd      0:vgs      0:vb       0:vin     
  volts      1.8000   600.0000m    1.2000     0.     
  current   -3.3200p    0.         0.         0.     
  power      5.9760p    0.         0.         0.     

     total voltage source power dissipation=    5.9760p       watts




 **** mosfets


 subckt                                   
 element  0:m1       0:m2       0:m3      
 model    0:ynmos    0:ynmos    0:ynmos   
 region       Cutoff     Linear     Cutoff
  id         0.       900.0004f    0.     
  ibs        0.        -2.9801f  -18.0000f
  ibd       -2.9801f   -2.9801f   -2.9801f
  vgs      600.0000m  901.9896m   -1.5020 
  vds      298.0104m    2.7306p   -1.5020 
  vbs        0.      -298.0104m   -1.8000 
  vth      700.0000m  765.6340m  765.6340m
  vdsat      0.         2.7306p    0.     
  vod     -100.0000m  136.3556m   -2.2676 
  beta       2.4172     2.4172     2.4172 
  gam eff  450.0000m  450.0000m  450.0000m
  gm         0.         6.6004p    0.     
  gds        0.       329.5988m    0.     
  gmb        0.         1.3568p    0.     
  cdtot    144.0018f  157.8126f  144.4688f
  cgtot    263.0711f  282.7284f  261.2639f
  cstot    113.5701f  124.3132f  110.5020f
  cbtot      5.4992f  602.5350a    6.2931f
  cgs      113.5701f  124.3132f  110.5020f
  cgd      144.0018f  157.8126f  144.4688f



 ***************************************************
   ******   pole/zero analysis  
 
 
    input =  0:vin          output = v(3)
 
 ***** no poles found *****     coeffd =767.149k
 ***** no zeros found *****     coeffn =79.1925u
  ***** constant factor = 79.1925u
 ******  
 reza adinepour - 9814303 - elec3-hw04-q1

  ******  ac analysis tnom=  25.000 temp=  25.000 *****
x

        freq       gain    
                           
    1.00000      13.6586m  
    1.04713      13.6586m  
    1.09648      13.6586m  
    1.14815      13.6586m  
    1.20226      13.6586m  
    1.25893      13.6586m  
    1.31826      13.6586m  
    1.38038      13.6586m  
    1.44544      13.6586m  
    1.51356      13.6586m  
    1.58489      13.6586m  
    1.65959      13.6586m  
    1.73780      13.6586m  
    1.81970      13.6586m  
    1.90546      13.6586m  
    1.99526      13.6586m  
    2.08930      13.6586m  
    2.18776      13.6586m  
    2.29087      13.6586m  
    2.39883      13.6586m  
    2.51189      13.6586m  
    2.63027      13.6586m  
    2.75423      13.6586m  
    2.88403      13.6586m  
    3.01995      13.6586m  
    3.16228      13.6586m  
    3.31131      13.6586m  
    3.46737      13.6586m  
    3.63078      13.6586m  
    3.80189      13.6586m  
    3.98107      13.6586m  
    4.16869      13.6586m  
    4.36516      13.6586m  
    4.57088      13.6586m  
    4.78630      13.6586m  
    5.01187      13.6586m  
    5.24807      13.6586m  
    5.49541      13.6586m  
    5.75440      13.6586m  
    6.02560      13.6586m  
    6.30957      13.6586m  
    6.60693      13.6586m  
    6.91831      13.6586m  
    7.24436      13.6586m  
    7.58578      13.6586m  
    7.94328      13.6586m  
    8.31764      13.6586m  
    8.70964      13.6586m  
    9.12011      13.6586m  
    9.54993      13.6586m  
   10.00000      13.6586m  
   10.47129      13.6586m  
   10.96478      13.6586m  
   11.48154      13.6586m  
   12.02264      13.6586m  
   12.58925      13.6586m  
   13.18257      13.6586m  
   13.80384      13.6586m  
   14.45440      13.6586m  
   15.13561      13.6586m  
   15.84893      13.6586m  
   16.59587      13.6586m  
   17.37801      13.6586m  
   18.19701      13.6586m  
   19.05461      13.6586m  
   19.95262      13.6586m  
   20.89296      13.6586m  
   21.87762      13.6586m  
   22.90868      13.6586m  
   23.98833      13.6586m  
   25.11886      13.6586m  
   26.30268      13.6586m  
   27.54229      13.6586m  
   28.84032      13.6586m  
   30.19952      13.6586m  
   31.62278      13.6586m  
   33.11311      13.6586m  
   34.67369      13.6586m  
   36.30781      13.6586m  
   38.01894      13.6586m  
   39.81072      13.6586m  
   41.68694      13.6586m  
   43.65158      13.6586m  
   45.70882      13.6586m  
   47.86301      13.6586m  
   50.11872      13.6586m  
   52.48075      13.6586m  
   54.95409      13.6586m  
   57.54399      13.6586m  
   60.25596      13.6586m  
   63.09573      13.6586m  
   66.06934      13.6586m  
   69.18310      13.6586m  
   72.44360      13.6586m  
   75.85776      13.6586m  
   79.43282      13.6586m  
   83.17638      13.6586m  
   87.09636      13.6586m  
   91.20108      13.6586m  
   95.49926      13.6586m  
  100.00000      13.6586m  
  104.71285      13.6586m  
  109.64782      13.6586m  
  114.81536      13.6586m  
  120.22644      13.6586m  
  125.89254      13.6586m  
  131.82567      13.6586m  
  138.03843      13.6586m  
  144.54398      13.6586m  
  151.35612      13.6586m  
  158.48932      13.6586m  
  165.95869      13.6586m  
  173.78008      13.6586m  
  181.97009      13.6586m  
  190.54607      13.6586m  
  199.52623      13.6586m  
  208.92961      13.6586m  
  218.77616      13.6586m  
  229.08677      13.6586m  
  239.88329      13.6586m  
  251.18864      13.6586m  
  263.02680      13.6586m  
  275.42287      13.6586m  
  288.40315      13.6586m  
  301.99517      13.6586m  
  316.22777      13.6586m  
  331.13112      13.6586m  
  346.73685      13.6586m  
  363.07805      13.6586m  
  380.18940      13.6586m  
  398.10717      13.6586m  
  416.86938      13.6586m  
  436.51583      13.6586m  
  457.08819      13.6586m  
  478.63009      13.6586m  
  501.18723      13.6586m  
  524.80746      13.6586m  
  549.54087      13.6586m  
  575.43994      13.6586m  
  602.55959      13.6586m  
  630.95734      13.6586m  
  660.69345      13.6586m  
  691.83097      13.6586m  
  724.43596      13.6586m  
  758.57758      13.6586m  
  794.32823      13.6586m  
  831.76377      13.6586m  
  870.96359      13.6586m  
  912.01084      13.6586m  
  954.99259      13.6586m  
    1.00000k     13.6586m  
    1.04713k     13.6586m  
    1.09648k     13.6586m  
    1.14815k     13.6586m  
    1.20226k     13.6586m  
    1.25893k     13.6586m  
    1.31826k     13.6586m  
    1.38038k     13.6586m  
    1.44544k     13.6586m  
    1.51356k     13.6586m  
    1.58489k     13.6586m  
    1.65959k     13.6586m  
    1.73780k     13.6586m  
    1.81970k     13.6586m  
    1.90546k     13.6586m  
    1.99526k     13.6586m  
    2.08930k     13.6586m  
    2.18776k     13.6586m  
    2.29087k     13.6586m  
    2.39883k     13.6586m  
    2.51189k     13.6586m  
    2.63027k     13.6586m  
    2.75423k     13.6586m  
    2.88403k     13.6586m  
    3.01995k     13.6586m  
    3.16228k     13.6586m  
    3.31131k     13.6586m  
    3.46737k     13.6586m  
    3.63078k     13.6586m  
    3.80189k     13.6586m  
    3.98107k     13.6586m  
    4.16869k     13.6586m  
    4.36516k     13.6586m  
    4.57088k     13.6586m  
    4.78630k     13.6586m  
    5.01187k     13.6586m  
    5.24807k     13.6586m  
    5.49541k     13.6586m  
    5.75440k     13.6586m  
    6.02560k     13.6586m  
    6.30957k     13.6586m  
    6.60693k     13.6586m  
    6.91831k     13.6586m  
    7.24436k     13.6586m  
    7.58578k     13.6586m  
    7.94328k     13.6586m  
    8.31764k     13.6586m  
    8.70964k     13.6586m  
    9.12011k     13.6586m  
    9.54993k     13.6586m  
   10.00000k     13.6586m  
   10.47129k     13.6586m  
   10.96478k     13.6586m  
   11.48154k     13.6586m  
   12.02264k     13.6586m  
   12.58925k     13.6586m  
   13.18257k     13.6586m  
   13.80384k     13.6586m  
   14.45440k     13.6586m  
   15.13561k     13.6586m  
   15.84893k     13.6586m  
   16.59587k     13.6586m  
   17.37801k     13.6586m  
   18.19701k     13.6586m  
   19.05461k     13.6586m  
   19.95262k     13.6586m  
   20.89296k     13.6586m  
   21.87762k     13.6586m  
   22.90868k     13.6586m  
   23.98833k     13.6586m  
   25.11886k     13.6586m  
   26.30268k     13.6586m  
   27.54229k     13.6586m  
   28.84032k     13.6586m  
   30.19952k     13.6586m  
   31.62278k     13.6586m  
   33.11311k     13.6586m  
   34.67369k     13.6586m  
   36.30781k     13.6586m  
   38.01894k     13.6586m  
   39.81072k     13.6586m  
   41.68694k     13.6586m  
   43.65158k     13.6586m  
   45.70882k     13.6586m  
   47.86301k     13.6586m  
   50.11872k     13.6586m  
   52.48075k     13.6586m  
   54.95409k     13.6586m  
   57.54399k     13.6586m  
   60.25596k     13.6586m  
   63.09573k     13.6586m  
   66.06934k     13.6586m  
   69.18310k     13.6586m  
   72.44360k     13.6586m  
   75.85776k     13.6586m  
   79.43282k     13.6586m  
   83.17638k     13.6586m  
   87.09636k     13.6586m  
   91.20108k     13.6586m  
   95.49926k     13.6586m  
  100.00000k     13.6586m  
  104.71285k     13.6586m  
  109.64782k     13.6586m  
  114.81536k     13.6586m  
  120.22644k     13.6586m  
  125.89254k     13.6586m  
  131.82567k     13.6586m  
  138.03843k     13.6586m  
  144.54398k     13.6586m  
  151.35612k     13.6586m  
  158.48932k     13.6586m  
  165.95869k     13.6586m  
  173.78008k     13.6586m  
  181.97009k     13.6586m  
  190.54607k     13.6586m  
  199.52623k     13.6586m  
  208.92961k     13.6586m  
  218.77616k     13.6586m  
  229.08677k     13.6586m  
  239.88329k     13.6586m  
  251.18864k     13.6586m  
  263.02680k     13.6586m  
  275.42287k     13.6586m  
  288.40315k     13.6586m  
  301.99517k     13.6586m  
  316.22777k     13.6586m  
  331.13112k     13.6586m  
  346.73685k     13.6586m  
  363.07805k     13.6586m  
  380.18940k     13.6586m  
  398.10717k     13.6586m  
  416.86938k     13.6586m  
  436.51583k     13.6586m  
  457.08819k     13.6586m  
  478.63009k     13.6586m  
  501.18723k     13.6586m  
  524.80746k     13.6586m  
  549.54087k     13.6586m  
  575.43994k     13.6586m  
  602.55959k     13.6586m  
  630.95734k     13.6586m  
  660.69345k     13.6586m  
  691.83097k     13.6586m  
  724.43596k     13.6586m  
  758.57758k     13.6586m  
  794.32823k     13.6586m  
  831.76377k     13.6586m  
  870.96359k     13.6586m  
  912.01084k     13.6586m  
  954.99259k     13.6586m  
    1.00000x     13.6586m  
    1.04713x     13.6586m  
    1.09648x     13.6586m  
    1.14815x     13.6586m  
    1.20226x     13.6586m  
    1.25893x     13.6586m  
    1.31826x     13.6586m  
    1.38038x     13.6586m  
    1.44544x     13.6586m  
    1.51356x     13.6586m  
    1.58489x     13.6586m  
    1.65959x     13.6586m  
    1.73780x     13.6586m  
    1.81970x     13.6586m  
    1.90546x     13.6586m  
    1.99526x     13.6586m  
    2.08930x     13.6586m  
    2.18776x     13.6586m  
    2.29087x     13.6586m  
    2.39883x     13.6586m  
    2.51189x     13.6586m  
    2.63027x     13.6586m  
    2.75423x     13.6586m  
    2.88403x     13.6586m  
    3.01995x     13.6586m  
    3.16228x     13.6586m  
    3.31131x     13.6586m  
    3.46737x     13.6586m  
    3.63078x     13.6586m  
    3.80189x     13.6586m  
    3.98107x     13.6586m  
    4.16869x     13.6586m  
    4.36516x     13.6586m  
    4.57088x     13.6586m  
    4.78630x     13.6586m  
    5.01187x     13.6586m  
    5.24807x     13.6586m  
    5.49541x     13.6586m  
    5.75440x     13.6586m  
    6.02560x     13.6586m  
    6.30957x     13.6586m  
    6.60693x     13.6586m  
    6.91831x     13.6586m  
    7.24436x     13.6586m  
    7.58578x     13.6586m  
    7.94328x     13.6586m  
    8.31764x     13.6586m  
    8.70964x     13.6586m  
    9.12011x     13.6586m  
    9.54993x     13.6586m  
   10.00000x     13.6586m  
y
   gain=  1.3659E-02    at=  3.4674E+00
               from=  1.0000E+00    to=  1.0000E+07
   fu= failed

          ***** job concluded
1****** HSPICE -- D-2010.03-SP1 32-BIT (May 26 2010) winnt ******               
 ******  
 reza adinepour - 9814303 - elec3-hw04-q1

  ******  job statistics summary tnom=  25.000 temp=  25.000 *****

  ******  HSPICE Threads Information  ******

  Command Line Threads Count                  :     1
  Available CPU Count                         :    12
  Actual Model Evaluation(Load) Threads Count :     1
  Actual Solver Threads Count                 :     1


  ******  Circuit Statistics  ******
  # nodes       =       7 # elements   =       8
  # resistors   =       0 # capacitors =       1 # inductors   =       0
  # mutual_inds =       0 # vccs       =       0 # vcvs        =       0
  # cccs        =       0 # ccvs       =       0 # volt_srcs   =       4
  # curr_srcs   =       0 # diodes     =       0 # bjts        =       0
  # jfets       =       0 # mosfets    =       3 # U elements  =       0
  # T elements  =       0 # W elements =       0 # B elements  =       0
  # S elements  =       0 # P elements =       0 # va device   =       0


  ******  Runtime Statistics (seconds)  ******

  analysis           time    # points   tot. iter  conv.iter
  op point           0.01           1           3
  ac analysis        0.08         351         351
  transient          0.07        5001         172          86 rev=         0
  readin             0.13
  errchk             0.02
  setup              0.02
  output             0.00


           total memory used          168  kbytes
           total cpu time            0.39 seconds
           total elapsed time        0.46 seconds
           job started at     09:54:29 04/22/2010
           job ended   at     09:54:30 04/22/2010


  lic: Release hspice token(s) 
