
**** 05/18/20 12:56:30 ********* PSpice 9.2 (Mar 2000) ******** ID# 0 ********

 ** Profile: "SCHEMATIC1-yrri"  [ e:\university\electronics 3\lab\6th\sim\gae-schematic1-yrri.sim ] 


 ****     CIRCUIT DESCRIPTION


******************************************************************************




** Creating circuit file "gae-schematic1-yrri.sim.cir" 
** WARNING: THIS AUTOMATICALLY GENERATED FILE MAY BE OVERWRITTEN BY SUBSEQUENT SIMULATIONS

*Libraries: 
* Local Libraries :
* From [PSPICE NETLIST] section of h:\softwares\orcad\new\PSpice\PSpice.ini file:
.lib "nom.lib" 

*Analysis directives: 
.TRAN  0 800ns 0 
.PROBE V(*) I(*) W(*) D(*) NOISE(*) 
.INC ".\gae-SCHEMATIC1.net" 



**** INCLUDING gae-SCHEMATIC1.net ****
* source GAE
Q_Q10         N01162 N01867 N01357 Q2N2222A/ZTX 
R_R2         VOUT N02699  680  
R_R11         N01867 0  318  
R_R3         VOUT N01647  600  
C_C1         N01867 0  0.1n IC=1 
R_R4         N01647 0  270  
C_C2         VOUT N01948  0.1n IC=1 
V_V3         N02507 0 12
R_R5         N02507 N01082  1k  
R_R6         N01162 N02507  3.3k  
Q_Q9         N01082 N01647 N01277 Q2N2222A/ZTX 
R_R7         N01360 N01277  18  
R_R8         N01360 N01357  18  
R_R9         N02699 N01360  3.9k  
Q_Q8         VOUT N01162 N00776 BC177AP/ZTX 
R_R10         N01948 N01867  318  
V_V2         0 N02699 12
R_R1         N00776 N02507  120  

**** RESUMING gae-schematic1-yrri.sim.cir ****
.END

**** 05/18/20 12:56:30 ********* PSpice 9.2 (Mar 2000) ******** ID# 0 ********

 ** Profile: "SCHEMATIC1-yrri"  [ e:\university\electronics 3\lab\6th\sim\gae-schematic1-yrri.sim ] 


 ****     BJT MODEL PARAMETERS


******************************************************************************




               Q2N2222A/ZTX    BC177AP/ZTX     
               NPN             PNP             
          IS   30.611000E-15   11.490000E-15 
          BF  220             330            
          NF    1.00124          .9872       
         VAF  104              84.56         
         IKF     .52             .1          
         ISE    7.500000E-15   50.000000E-15 
          NE    1.41            1.4          
          BR    4              13            
          NR    1.005            .996        
         VAR   28               8.15         
         IKR     .24             .012        
         ISC   10.652500E-12   14.300000E-15 
          NC    1.3728          1.1          
          RB     .13             .2          
          RE     .22             .4          
          RC     .12             .95         
         CJE   27.010000E-12   16.000000E-12 
         CJC    9.120000E-12   10.500000E-12 
         VJC     .4089           .565        
         MJC     .3508           .415        
          TF  325.000000E-12  493.000000E-12 
          TR  100.000000E-09   73.550000E-09 
          CN    2.42            2.2          
           D     .87             .52         


**** 05/18/20 12:56:30 ********* PSpice 9.2 (Mar 2000) ******** ID# 0 ********

 ** Profile: "SCHEMATIC1-yrri"  [ e:\university\electronics 3\lab\6th\sim\gae-schematic1-yrri.sim ] 


 ****     INITIAL TRANSIENT SOLUTION       TEMPERATURE =   27.000 DEG C


******************************************************************************



 NODE   VOLTAGE     NODE   VOLTAGE     NODE   VOLTAGE     NODE   VOLTAGE


( VOUT)    3.2444  (N00776)    8.3733 (N01082)   10.3370 (N01162)    7.6231     

(N01277)     .3666 (N01357)     .3634 (N01360)     .3366 (N01647)    1.0055     

(N01867)    1.0000 (N01948)    2.2444 (N02507)   12.0000 (N02699)  -12.0000 




    VOLTAGE SOURCE CURRENTS
    NAME         CURRENT

    V_V3        -3.321E-02
    V_V2        -2.558E-02

    TOTAL POWER DISSIPATION   7.06E-01  WATTS



          JOB CONCLUDED

          TOTAL JOB TIME             .02
