
**** 03/05/23 20:53:19 ********* PSpice 9.2 (Mar 2000) ******** ID# 1 ********

 ** Profile: "SCHEMATIC1-Pulse-HW02-Simulation"  [ D:\DRIVE E\UNIVERSITY\TA\PULSE TECHNIQUE\HWS\HW02\Simulation\pulse-hw02-simulation


 ****     CIRCUIT DESCRIPTION


******************************************************************************




** Creating circuit file "pulse-hw02-simulation-SCHEMATIC1-Pulse-HW02-Simulation.sim.cir" 
** WARNING: THIS AUTOMATICALLY GENERATED FILE MAY BE OVERWRITTEN BY SUBSEQUENT SIMULATIONS

*Libraries: 
* Local Libraries :
* From [PSPICE NETLIST] section of C:\Program Files\Orcad\PSpice\PSpice.ini file:
.lib "nom.lib" 

*Analysis directives: 
.TRAN  0 2us 0 
.PROBE V(*) I(*) W(*) D(*) NOISE(*) 
.INC ".\pulse-hw02-simulation-SCHEMATIC1.net" 



**** INCLUDING pulse-hw02-simulation-SCHEMATIC1.net ****
* source PULSE-HW02-SIMULATION
D_D1         N00271 N00339 D1N4448 
R_R1         N00339 0  1k  
R_R2         N00464 N00271  1k  
V_V1         N00464 0  
+PULSE -5 +5 1n 1n 1n 0.5u 10
L_L1         N00271 0  10uH  

**** RESUMING pulse-hw02-simulation-SCHEMATIC1-Pulse-HW02-Simulation.sim.cir ****
.END

**** 03/05/23 20:53:19 ********* PSpice 9.2 (Mar 2000) ******** ID# 1 ********

 ** Profile: "SCHEMATIC1-Pulse-HW02-Simulation"  [ D:\DRIVE E\UNIVERSITY\TA\PULSE TECHNIQUE\HWS\HW02\Simulation\pulse-hw02-simulation


 ****     Diode MODEL PARAMETERS


******************************************************************************




               D1N4448         
          IS    2.681000E-09 
           N    1.835        
         ISR    1.566000E-09 
         IKF     .03482      
          BV  100            
         IBV  100.000000E-06 
          RS     .5142       
          TT   11.540000E-09 
         CJO    4.000000E-12 
          VJ     .5          
           M     .3333       


**** 03/05/23 20:53:19 ********* PSpice 9.2 (Mar 2000) ******** ID# 1 ********

 ** Profile: "SCHEMATIC1-Pulse-HW02-Simulation"  [ D:\DRIVE E\UNIVERSITY\TA\PULSE TECHNIQUE\HWS\HW02\Simulation\pulse-hw02-simulation


 ****     INITIAL TRANSIENT SOLUTION       TEMPERATURE =   27.000 DEG C


******************************************************************************



 NODE   VOLTAGE     NODE   VOLTAGE     NODE   VOLTAGE     NODE   VOLTAGE


(N00271)    0.0000 (N00339) 243.0E-24 (N00464)   -5.0000 




    VOLTAGE SOURCE CURRENTS
    NAME         CURRENT

    V_V1         5.000E-03

    TOTAL POWER DISSIPATION   2.50E-02  WATTS



          JOB CONCLUDED

          TOTAL JOB TIME             .02
