
**** 04/22/22 18:05:34 ********* PSpice 9.2 (Mar 2000) ******** ID# 1 ********

 ** Profile: "SCHEMATIC1-Pulse_HW06"  [ E:\UNIVERSITY\ELECTERICAL\PULSE TECHNIQUE\DR AHMADIFARD\SPRING 00-01\HW\HW06\Simulation\8-12\


 ****     CIRCUIT DESCRIPTION


******************************************************************************




** Creating circuit file "pulse_hw06-SCHEMATIC1-Pulse_HW06.sim.cir" 
** WARNING: THIS AUTOMATICALLY GENERATED FILE MAY BE OVERWRITTEN BY SUBSEQUENT SIMULATIONS

*Libraries: 
* Local Libraries :
* From [PSPICE NETLIST] section of C:\Program Files\Orcad\PSpice\PSpice.ini file:
.lib "nom.lib" 

*Analysis directives: 
.TRAN  0 200us 0 
.PROBE V(*) I(*) W(*) D(*) NOISE(*) 
.INC ".\pulse_hw06-SCHEMATIC1.net" 



**** INCLUDING pulse_hw06-SCHEMATIC1.net ****
* source PULSE_HW06
Q_Q2         N00921 N00950 0 Q2N1566
Q_Q1         N00950 N00853 N00885 Q2N1132
R_R1         0 N00950  25k  
R_R2         0 N00853  20k  
R_R3         N00921 N00885  5k  
V_V1         N00885 0 10Vdc
C_C3         N00853 N00921  0.01u  

**** RESUMING pulse_hw06-SCHEMATIC1-Pulse_HW06.sim.cir ****
.END

**** 04/22/22 18:05:34 ********* PSpice 9.2 (Mar 2000) ******** ID# 1 ********

 ** Profile: "SCHEMATIC1-Pulse_HW06"  [ E:\UNIVERSITY\ELECTERICAL\PULSE TECHNIQUE\DR AHMADIFARD\SPRING 00-01\HW\HW06\Simulation\8-12\


 ****     BJT MODEL PARAMETERS


******************************************************************************




               Q2N1566         Q2N1132         
               NPN             PNP             
          IS   14.340000E-15  650.600000E-18 
          BF  173.4            70.35         
          NF    1               1            
         VAF   74.03          115.7          
         IKF     .2689          1.079        
         ISE   14.340000E-15  180.500000E-15 
          NE    1.272           1.829        
          BR    6.458           4.146        
          NR    1               1            
          RB   10              10            
          RC    1                .715        
         CJE   22.010000E-12   19.820000E-12 
         MJE     .377            .3357       
         CJC    9.393000E-12   29.520000E-12 
         MJC     .3416           .5383       
          TF  409.700000E-12  757.700000E-12 
         XTF    3               1.7          
         VTF    1.7             5            
         ITF     .6              .65         
          TR   48.390000E-09  119.900000E-09 
         XTB    1.5             1.5          
          CN    2.42            2.2          
           D     .87             .52         


**** 04/22/22 18:05:34 ********* PSpice 9.2 (Mar 2000) ******** ID# 1 ********

 ** Profile: "SCHEMATIC1-Pulse_HW06"  [ E:\UNIVERSITY\ELECTERICAL\PULSE TECHNIQUE\DR AHMADIFARD\SPRING 00-01\HW\HW06\Simulation\8-12\


 ****     INITIAL TRANSIENT SOLUTION       TEMPERATURE =   27.000 DEG C


******************************************************************************



 NODE   VOLTAGE     NODE   VOLTAGE     NODE   VOLTAGE     NODE   VOLTAGE


(N00853)    9.1801 (N00885)   10.0000 (N00921)     .0081 (N00950)    1.1204 




    VOLTAGE SOURCE CURRENTS
    NAME         CURRENT

    V_V1        -3.562E-02

    TOTAL POWER DISSIPATION   3.56E-01  WATTS



          JOB CONCLUDED

          TOTAL JOB TIME             .05
