
**** 04/15/22 18:22:47 ******* PSpice 17.4.0 (Nov 2018) ******* ID# 0 ********

 ** Profile: "SCHEMATIC1-t"  [ C:\Users\Kavosh\Desktop\TestPrograming\proteus\azteknik\4\ORCAD\a-PSpiceFiles\SCHEMATIC1\t.sim ] 


 ****     CIRCUIT DESCRIPTION


******************************************************************************




** Creating circuit file "t.cir" 
** WARNING: THIS AUTOMATICALLY GENERATED FILE MAY BE OVERWRITTEN BY SUBSEQUENT SIMULATIONS

*Libraries: 
* Profile Libraries :
* Local Libraries :
* From [PSPICE NETLIST] section of C:\Users\Kavosh\AppData\Roaming\SPB_Data\cdssetup\OrCAD_PSpice\17.4.0\PSpice.ini file:
.lib "nom.lib" 

*Analysis directives: 
.TRAN  0 1ms 0 1us 
.OPTIONS ADVCONV
.PROBE64 V(alias(*)) I(alias(*)) W(alias(*)) D(alias(*)) NOISE(alias(*)) 
.INC "..\SCHEMATIC1.net" 



**** INCLUDING SCHEMATIC1.net ****
* source A
Q_Q1         N00282 N00312 N00274 Q2N2222
Q_Q2         N00355 N00296 N00278 Q2N2222
R_R1         N00478 N00282 1k
R_R2         N00478 N00312 31.6k
C_C1         N00282 N00296 6.8n
R_R3         N00478 N00296 10.53k
R_R4         N00478 N00355 1k
C_C2         N00312 N00355 6.8n
D_D1         N00274 0 D1N4148 
D_D2         N00278 0 D1N4148 
V_V1         N00478 0 10Vdc

**** RESUMING t.cir ****
.END

**** 04/15/22 18:22:47 ******* PSpice 17.4.0 (Nov 2018) ******* ID# 0 ********

 ** Profile: "SCHEMATIC1-t"  [ C:\Users\Kavosh\Desktop\TestPrograming\proteus\azteknik\4\ORCAD\a-PSpiceFiles\SCHEMATIC1\t.sim ] 


 ****     Diode MODEL PARAMETERS


******************************************************************************




               D1N4148         
          IS    2.682000E-09 
           N    1.836        
         ISR    1.565000E-09 
         IKF     .04417      
          BV  100            
         IBV  100.000000E-06 
          RS     .5664       
          TT   11.540000E-09 
         CJO    4.000000E-12 
          VJ     .5          
           M     .3333       


**** 04/15/22 18:22:47 ******* PSpice 17.4.0 (Nov 2018) ******* ID# 0 ********

 ** Profile: "SCHEMATIC1-t"  [ C:\Users\Kavosh\Desktop\TestPrograming\proteus\azteknik\4\ORCAD\a-PSpiceFiles\SCHEMATIC1\t.sim ] 


 ****     BJT MODEL PARAMETERS


******************************************************************************




               Q2N2222         
               NPN             
       LEVEL    1            
          IS   14.340000E-15 
          BF  255.9          
          NF    1            
         VAF   74.03         
         IKF     .2847       
         ISE   14.340000E-15 
          NE    1.307        
          BR    6.092        
          NR    1            
         ISS    0            
          RB   10            
          RE    0            
          RC    1            
         CJE   22.010000E-12 
         VJE     .75         
         MJE     .377        
         CJC    7.306000E-12 
         VJC     .75         
         MJC     .3416       
        XCJC    1            
         CJS    0            
         VJS     .75         
          TF  411.100000E-12 
         XTF    3            
         VTF    1.7          
         ITF     .6          
          TR   46.910000E-09 
         XTB    1.5          
          KF    0            
          AF    1            
          CN    2.42         
           D     .87         


**** 04/15/22 18:22:47 ******* PSpice 17.4.0 (Nov 2018) ******* ID# 0 ********

 ** Profile: "SCHEMATIC1-t"  [ C:\Users\Kavosh\Desktop\TestPrograming\proteus\azteknik\4\ORCAD\a-PSpiceFiles\SCHEMATIC1\t.sim ] 


 ****     INITIAL TRANSIENT SOLUTION       TEMPERATURE =   27.000 DEG C


******************************************************************************



 NODE   VOLTAGE     NODE   VOLTAGE     NODE   VOLTAGE     NODE   VOLTAGE


(N00274)     .7196 (N00278)     .7229 (N00282)     .7848 (N00296)    1.4469     

(N00312)    1.4304 (N00355)     .7636 (N00478)   10.0000 




    VOLTAGE SOURCE CURRENTS
    NAME         CURRENT

    V_V1        -1.954E-02

    TOTAL POWER DISSIPATION   1.95E-01  WATTS



          JOB CONCLUDED

**** 04/15/22 18:22:47 ******* PSpice 17.4.0 (Nov 2018) ******* ID# 0 ********

 ** Profile: "SCHEMATIC1-t"  [ C:\Users\Kavosh\Desktop\TestPrograming\proteus\azteknik\4\ORCAD\a-PSpiceFiles\SCHEMATIC1\t.sim ] 


 ****     JOB STATISTICS SUMMARY


******************************************************************************



  Total job time (using Solver 1)   =         .06
