
**** 05/12/22 13:52:00 ********* PSpice 9.2 (Mar 2000) ******** ID# 1 ********

 ** Profile: "SCHEMATIC1-Pulse_HW07_Q32"  [ e:\university\electerical\pulse technique\dr ahmadifard\spring 00-01\hw\hw07\simulation\q


 ****     CIRCUIT DESCRIPTION


******************************************************************************




** Creating circuit file "pulse_hw07_q32-schematic1-pulse_hw07_q32.sim.cir" 
** WARNING: THIS AUTOMATICALLY GENERATED FILE MAY BE OVERWRITTEN BY SUBSEQUENT SIMULATIONS

*Libraries: 
* Local Libraries :
* From [PSPICE NETLIST] section of C:\Program Files\Orcad\PSpice\PSpice.ini file:
.lib "nom.lib" 

*Analysis directives: 
.TRAN  0 1ms 0 
.PROBE V(*) I(*) W(*) D(*) NOISE(*) 
.INC ".\pulse_hw07_q32-SCHEMATIC1.net" 



**** INCLUDING pulse_hw07_q32-SCHEMATIC1.net ****
* source PULSE_HW07_Q32
Q_Q2         N00896 N01164 0 BC107A 
Q_Q3         N00867 N01132 0 BC107A 
C_C3         N01132 N00896  400P  
V_V1         N01196 0 8Vdc
C_C4         N00867 N01164  270P  
R_R1         N00896 N01196  2k  
R_R3         N01132 N01196  200k  
R_R5         N01164 N01196  200k  
R_R6         N00867 N01196  2k  

**** RESUMING pulse_hw07_q32-schematic1-pulse_hw07_q32.sim.cir ****
.END

**** 05/12/22 13:52:00 ********* PSpice 9.2 (Mar 2000) ******** ID# 1 ********

 ** Profile: "SCHEMATIC1-Pulse_HW07_Q32"  [ e:\university\electerical\pulse technique\dr ahmadifard\spring 00-01\hw\hw07\simulation\q


 ****     BJT MODEL PARAMETERS


******************************************************************************




               BC107A          
               NPN             
          IS    7.049000E-15 
          BF  375.5          
          NF    1            
         VAF  116.3          
         IKF    4.589        
         ISE    7.049000E-15 
          NE    1.281        
          BR    2.611        
          NR    1            
         IKR    5.313        
         ISC  121.700000E-12 
          NC    1.865        
          RC    1.464        
         CJE   11.500000E-12 
         VJE     .5          
         MJE     .2717       
         CJC    5.380000E-12 
         VJC     .6218       
         MJC     .329        
          TF  451.000000E-12 
         XTF   17.43         
         VTF   10            
         ITF    6.194        
          TR   10.000000E-09 
         XTB    1.5          
          CN    2.42         
           D     .87         


**** 05/12/22 13:52:00 ********* PSpice 9.2 (Mar 2000) ******** ID# 1 ********

 ** Profile: "SCHEMATIC1-Pulse_HW07_Q32"  [ e:\university\electerical\pulse technique\dr ahmadifard\spring 00-01\hw\hw07\simulation\q


 ****     INITIAL TRANSIENT SOLUTION       TEMPERATURE =   27.000 DEG C


******************************************************************************



 NODE   VOLTAGE     NODE   VOLTAGE     NODE   VOLTAGE     NODE   VOLTAGE


(N00867)     .1558 (N00896)     .1558 (N01132)     .6998 (N01164)     .6998     

(N01196)    8.0000 




    VOLTAGE SOURCE CURRENTS
    NAME         CURRENT

    V_V1        -7.917E-03

    TOTAL POWER DISSIPATION   6.33E-02  WATTS



          JOB CONCLUDED

          TOTAL JOB TIME             .02
