
**** 03/07/22 19:50:41 ********* PSpice 9.2 (Mar 2000) ******** ID# 1 ********

 ** Profile: "SCHEMATIC1-Elec3_HW02"  [ E:\University\Electerical\Electronic 3\Dr Marvi\HW\HW02\Simulation\Q2\elec3_hw02-SCHEMATIC1-E


 ****     CIRCUIT DESCRIPTION


******************************************************************************




** Creating circuit file "elec3_hw02-SCHEMATIC1-Elec3_HW02.sim.cir" 
** WARNING: THIS AUTOMATICALLY GENERATED FILE MAY BE OVERWRITTEN BY SUBSEQUENT SIMULATIONS

*Libraries: 
* Local Libraries :
* From [PSPICE NETLIST] section of C:\Program Files\Orcad\PSpice\PSpice.ini file:
.lib "nom.lib" 

*Analysis directives: 
.AC DEC 1KHz 1Hz 100KHz
.PROBE V(*) I(*) W(*) D(*) NOISE(*) 
.INC ".\elec3_hw02-SCHEMATIC1.net" 



**** INCLUDING elec3_hw02-SCHEMATIC1.net ****
* source ELEC3_HW02
Q_Q1         N01738 N01242 N01322 Q2N2222A
V_V4         N02165 0 DC 0Vdc AC 1mVac 
R_R1         N01242 N01738  9.3K  
Q_Q2         N01381 N01322 N01410 Q2N2222A
R_R2         N01612 N01242  10.7K  
R_R3         N01215 N02165  10k  
C_C1         N01215 N01242  22u  
R_R4         N01612 N01322  10k  
V_V2         0 N01612 10Vdc
R_R5         N01612 N01410  9.3k  
V_V1         N01738 0 10Vdc
R_R6         N01381 N01738  5k  
C_C5         N01612 N01410  100u  
R_R8         N01612 N01503  5k  
C_C7         N01381 N01503  22u  
C_C8         N01612 N01503  30p  

**** RESUMING elec3_hw02-SCHEMATIC1-Elec3_HW02.sim.cir ****
.END

**** 03/07/22 19:50:41 ********* PSpice 9.2 (Mar 2000) ******** ID# 1 ********

 ** Profile: "SCHEMATIC1-Elec3_HW02"  [ E:\University\Electerical\Electronic 3\Dr Marvi\HW\HW02\Simulation\Q2\elec3_hw02-SCHEMATIC1-E


 ****     BJT MODEL PARAMETERS


******************************************************************************




               Q2N2222A        
               NPN             
          IS   14.340000E-15 
          BF  255.9          
          NF    1            
         VAF   74.03         
         IKF     .2847       
         ISE   14.340000E-15 
          NE    1.307        
          BR    6.092        
          NR    1            
          RB   10            
          RC    1            
         CJE   22.010000E-12 
         MJE     .377        
         CJC    7.306000E-12 
         MJC     .3416       
          TF  411.100000E-12 
         XTF    3            
         VTF    1.7          
         ITF     .6          
          TR   46.910000E-09 
         XTB    1.5          
          CN    2.42         
           D     .87         


**** 03/07/22 19:50:41 ********* PSpice 9.2 (Mar 2000) ******** ID# 1 ********

 ** Profile: "SCHEMATIC1-Elec3_HW02"  [ E:\University\Electerical\Electronic 3\Dr Marvi\HW\HW02\Simulation\Q2\elec3_hw02-SCHEMATIC1-E


 ****     SMALL SIGNAL BIAS SOLUTION       TEMPERATURE =   27.000 DEG C


******************************************************************************



 NODE   VOLTAGE     NODE   VOLTAGE     NODE   VOLTAGE     NODE   VOLTAGE


(N01215)    0.0000 (N01242)     .6697 (N01322)     .0267 (N01381)    4.9877     

(N01410)    -.6176 (N01503)  -10.0000 (N01612)  -10.0000 (N01738)   10.0000     

(N02165)    0.0000 




    VOLTAGE SOURCE CURRENTS
    NAME         CURRENT

    V_V4         0.000E+00
    V_V2        -3.009E-03
    V_V1        -3.009E-03

    TOTAL POWER DISSIPATION   6.02E-02  WATTS



          JOB CONCLUDED

          TOTAL JOB TIME             .17
